#  HZ   S   RI   R     50.00 
! Rohde & Schwarz ZVA40 2Ports - Version 3.12 - 1145.1110k40 SN: 100360
! Date: 2019-07-29 15:54:23
! Measurement: S11 
! 
 1.000000000000000E8     4.271005392074585E-1  -6.310858130455017E-1  
 1.005000000000000E8     2.742333710193634E-1  -7.111284136772156E-1  
 1.010000000000000E8     1.065419167280197E-1  -7.509790658950806E-1  
 1.015000000000000E8    -6.254774332046509E-2  -7.518895268440247E-1  
 1.020000000000000E8    -2.300235629081726E-1  -7.136638760566711E-1  
 1.025000000000000E8    -3.840745389461517E-1  -6.387045383453369E-1  
 1.030000000000000E8    -5.156635642051697E-1  -5.264436006546021E-1  
 1.035000000000000E8    -6.145243048667908E-1  -3.879775404930115E-1  
 1.040000000000000E8    -6.754134893417358E-1  -2.369184195995331E-1  
 1.045000000000000E8    -7.016354203224182E-1  -7.610372453927994E-2  
 1.050000000000000E8    -6.920675039291382E-1   8.137375116348267E-2  
 1.055000000000000E8    -6.471429467201233E-1   2.348397672176361E-1  
 1.060000000000000E8    -5.746123194694519E-1   3.714868426322937E-1  
 1.065000000000000E8    -4.785951375961304E-1   4.902937412261963E-1  
 1.070000000000000E8    -3.502797484397888E-1   5.860084295272827E-1  
 1.075000000000000E8    -2.082338035106659E-1   6.568802595138550E-1  
 1.080000000000000E8    -4.873757436871529E-2   6.876742243766785E-1  
 1.085000000000000E8     1.105092167854309E-1   6.802655458450317E-1  
 1.090000000000000E8     2.627308964729309E-1   6.345942020416260E-1  
 1.095000000000000E8     4.001847207546234E-1   5.592371225357056E-1  
 1.100000000000000E8     5.185269713401794E-1   4.545632302761078E-1  
 1.105000000000000E8     6.054003834724426E-1   3.262675404548645E-1  
 1.110000000000000E8     6.678671240806580E-1   1.823538541793823E-1  
 1.115000000000000E8     6.925035119056702E-1   2.782547846436501E-2  
 1.120000000000000E8     6.839947104454041E-1  -1.271878629922867E-1  
 1.125000000000000E8     6.399765014648438E-1  -2.773900628089905E-1  
 1.130000000000000E8     5.649400949478149E-1  -4.142786860466003E-1  
 1.135000000000000E8     4.604517519474030E-1  -5.306583642959595E-1  
 1.140000000000000E8     3.311595022678375E-1  -6.204091310501099E-1  
 1.145000000000000E8     1.842640936374664E-1  -6.792646646499634E-1  
 1.150000000000000E8     2.560043893754482E-2  -7.046613693237305E-1  
 1.155000000000000E8    -1.339004635810852E-1  -6.910452842712402E-1  
 1.160000000000000E8    -2.865749001502991E-1  -6.389024257659912E-1  
 1.165000000000000E8    -4.227650463581085E-1  -5.553500056266785E-1  
 1.170000000000000E8    -5.379444956779480E-1  -4.386385381221771E-1  
 1.175000000000000E8    -6.227050423622131E-1  -2.998570799827576E-1  
 1.180000000000000E8    -6.733785867691040E-1  -1.490949541330338E-1  
 1.185000000000000E8    -6.851099133491516E-1   1.449123863130808E-2  
 1.190000000000000E8    -6.573415398597717E-1   1.759945452213287E-1  
 1.195000000000000E8    -5.917289257049561E-1   3.264509439468384E-1  
 1.200000000000000E8    -4.935850203037262E-1   4.541920423507690E-1  
 1.205000000000000E8    -3.663800358772278E-1   5.538116097450256E-1  
 1.210000000000000E8    -2.232442051172257E-1   6.251782178878784E-1  
 1.215000000000000E8    -6.820425391197205E-2   6.525580883026123E-1  
 1.220000000000000E8     9.013398736715317E-2   6.480972766876221E-1  
 1.225000000000000E8     2.385254055261612E-1   6.043906211853027E-1  
 1.230000000000000E8     3.714750111103058E-1   5.279560089111328E-1  
 1.235000000000000E8     4.834303855895996E-1   4.240785539150238E-1  
 1.240000000000000E8     5.643507838249207E-1   2.975158393383026E-1  
 1.245000000000000E8     6.172541379928589E-1   1.589201688766480E-1  
 1.250000000000000E8     6.330191493034363E-1   1.038908679038286E-2  
 1.255000000000000E8     6.132717132568359E-1  -1.346698105335236E-1  
 1.260000000000000E8     5.618047714233398E-1  -2.700685858726502E-1  
 1.265000000000000E8     4.824008643627167E-1  -3.899669647216797E-1  
 1.270000000000000E8     3.756646215915680E-1  -4.835125207901001E-1  
 1.275000000000000E8     2.520439326763153E-1  -5.547089576721191E-1  
 1.280000000000000E8     1.147178933024406E-1  -5.921134948730469E-1  
 1.285000000000000E8    -2.885545976459980E-2  -5.977594256401062E-1  
 1.290000000000000E8    -1.709175407886505E-1  -5.635087490081787E-1  
 1.295000000000000E8    -2.998070120811462E-1  -4.952282905578613E-1  
 1.300000000000000E8    -4.059525132179260E-1  -3.957852423191071E-1  
 1.305000000000000E8    -4.825387895107269E-1  -2.729783058166504E-1  
 1.310000000000000E8    -5.229361057281494E-1  -1.374462991952896E-1  
 1.315000000000000E8    -5.279982686042786E-1   5.828958004713059E-3  
 1.320000000000000E8    -4.926622509956360E-1   1.449398249387741E-1  
 1.325000000000000E8    -4.225782155990601E-1   2.688032388687134E-1  
 1.330000000000000E8    -3.214506506919861E-1   3.704432547092438E-1  
 1.335000000000000E8    -1.912373453378677E-1   4.386011064052582E-1  
 1.340000000000000E8    -4.905561730265617E-2   4.647070169448853E-1  
 1.345000000000000E8     1.009433940052986E-1   4.430918395519257E-1  
 1.350000000000000E8     2.303677797317505E-1   3.688545823097229E-1  
 1.355000000000000E8     3.219957351684570E-1   2.571757733821869E-1  
 1.360000000000000E8     3.615963160991669E-1   1.302005946636200E-1  
 1.365000000000000E8     3.576101660728455E-1   1.034496072679758E-2  
 1.370000000000000E8     3.202410638332367E-1  -9.031506627798080E-2  
 1.375000000000000E8     2.620785832405090E-1  -1.703553348779678E-1  
 1.380000000000000E8     1.849591732025147E-1  -2.293017506599426E-1  
 1.385000000000000E8     9.281247109174728E-2  -2.586235404014587E-1  
 1.390000000000000E8    -1.114259823225439E-3  -2.498393803834915E-1  
 1.395000000000000E8    -7.996938377618790E-2  -2.071684598922730E-1  
 1.400000000000000E8    -1.337098181247711E-1  -1.401205211877823E-1  
 1.405000000000000E8    -1.506930440664291E-1  -5.870887264609337E-2  
 1.410000000000000E8    -1.284745782613754E-1   1.899446174502373E-2  
 1.415000000000000E8    -6.975034624338150E-2   6.923932582139969E-2  
 1.420000000000000E8     1.257933210581541E-3   7.514379918575287E-2  
 1.425000000000000E8     5.365219712257385E-2   3.985372558236122E-2  
 1.430000000000000E8     7.262011617422104E-2  -1.339189335703850E-2  
 1.435000000000000E8     5.654944479465485E-2  -6.756162643432617E-2  
 1.440000000000000E8     1.528288004919887E-3  -1.082491502165794E-1  
 1.445000000000000E8    -9.062764793634415E-2  -1.011928990483284E-1  
 1.450000000000000E8    -1.816649585962296E-1  -9.238094091415405E-3  
 1.455000000000000E8    -1.920997351408005E-1   1.719278246164322E-1  
 1.460000000000000E8    -3.755840659141541E-2   3.644456863403320E-1  
 1.465000000000000E8     2.762907743453980E-1   4.074385166168213E-1  
 1.470000000000000E8     5.650703310966492E-1   1.930809617042542E-1  
 1.475000000000000E8     6.441972255706787E-1  -1.549876183271408E-1  
 1.480000000000000E8     5.250943899154663E-1  -4.628466069698334E-1  
 1.485000000000000E8     2.989613711833954E-1  -6.537010669708252E-1  
 1.490000000000000E8     3.906862065196037E-2  -7.288114428520203E-1  
 1.495000000000000E8    -2.139659672975540E-1  -7.031999826431274E-1  
 1.500000000000000E8    -4.270972013473511E-1  -6.009630560874939E-1  
 1.505000000000000E8    -5.915173292160034E-1  -4.462234973907471E-1  
 1.510000000000000E8    -6.925154328346252E-1  -2.562676966190338E-1  
 1.515000000000000E8    -7.323464751243591E-1  -5.063979700207710E-2  
 1.520000000000000E8    -7.148838639259338E-1   1.530044525861740E-1  
 1.525000000000000E8    -6.449531316757202E-1   3.364593088626862E-1  
 1.530000000000000E8    -5.310150980949402E-1   4.923137128353119E-1  
 1.535000000000000E8    -3.814786672592163E-1   6.127285361289978E-1  
 1.540000000000000E8    -2.084780037403107E-1   6.872797608375549E-1  
 1.545000000000000E8    -2.253071591258049E-2   7.143648862838745E-1  
 1.550000000000000E8     1.612610518932343E-1   6.949810385704041E-1  
 1.555000000000000E8     3.309545814990997E-1   6.319639682769775E-1  
 1.560000000000000E8     4.807396233081818E-1   5.254595875740051E-1  
 1.565000000000000E8     5.961213707923889E-1   3.888227641582489E-1  
 1.570000000000000E8     6.750240325927734E-1   2.284577786922455E-1  
 1.575000000000000E8     7.133299112319946E-1   5.487712472677231E-2  
 1.580000000000000E8     7.070840001106262E-1  -1.203882172703743E-1  
 1.585000000000000E8     6.583840250968933E-1  -2.894572317600250E-1  
 1.590000000000000E8     5.727086067199707E-1  -4.396705627441406E-1  
 1.595000000000000E8     4.511846601963043E-1  -5.641618371009827E-1  
 1.600000000000000E8     3.075207769870758E-1  -6.558906435966492E-1  
 1.605000000000000E8     1.470700651407242E-1  -7.107329964637756E-1  
 1.610000000000000E8    -2.041767537593842E-2  -7.264062166213989E-1  
 1.615000000000000E8    -1.865752786397934E-1  -7.024290561676025E-1  
 1.620000000000000E8    -3.409249484539032E-1  -6.417627930641174E-1  
 1.625000000000000E8    -4.768796861171722E-1  -5.482837557792664E-1  
 1.630000000000000E8    -5.855998396873474E-1  -4.275001585483551E-1  
 1.635000000000000E8    -6.657976508140564E-1  -2.846440970897675E-1  
 1.640000000000000E8    -7.124270796775818E-1  -1.277234554290772E-1  
 1.645000000000000E8    -7.222818136215210E-1   3.318893909454346E-2  
 1.650000000000000E8    -6.940352320671082E-1   1.921359002590179E-1  
 1.655000000000000E8    -6.287563443183899E-1   3.400016427040100E-1  
 1.660000000000000E8    -5.360236167907715E-1   4.724902510643005E-1  
 1.665000000000000E8    -4.139277338981628E-1   5.781508088111877E-1  
 1.670000000000000E8    -2.732519209384918E-1   6.525184512138367E-1  
 1.675000000000000E8    -1.180463135242462E-1   6.946179270744324E-1  
 1.680000000000000E8     4.417565092444420E-2   7.017437815666199E-1  
 1.685000000000000E8     2.008149474859238E-1   6.709696650505066E-1  
 1.690000000000000E8     3.502933979034424E-1   6.071446537971497E-1  
 1.695000000000000E8     4.785487353801727E-1   5.103053450584412E-1  
 1.700000000000000E8     5.828827619552612E-1   3.857160508632660E-1  
 1.705000000000000E8     6.570897698402405E-1   2.414279133081436E-1  
 1.710000000000000E8     6.977519989013672E-1   8.305115997791290E-2  
 1.715000000000000E8     6.982607841491699E-1  -8.098617941141129E-2  
 1.720000000000000E8     6.632335782051086E-1  -2.412245869636536E-1  
 1.725000000000000E8     5.927690863609314E-1  -3.868575096130371E-1  
 1.730000000000000E8     4.904898405075073E-1  -5.140153169631958E-1  
 1.735000000000000E8     3.611609041690826E-1  -6.116995215415955E-1  
 1.740000000000000E8     2.136882543563843E-1  -6.816651821136475E-1  
 1.745000000000000E8     5.599769577383995E-2  -7.113044261932373E-1  
 1.750000000000000E8    -1.028606742620468E-1  -7.083362936973572E-1  
 1.755000000000000E8    -2.556745409965515E-1  -6.701316237449646E-1  
 1.760000000000000E8    -3.965553343296051E-1  -5.999417304992676E-1  
 1.765000000000000E8    -5.160220861434937E-1  -4.987987279891968E-1  
 1.770000000000000E8    -6.106278300285339E-1  -3.764405846595764E-1  
 1.775000000000000E8    -6.796621084213257E-1  -2.382024228572846E-1  
 1.780000000000000E8    -7.126936316490173E-1  -9.073253720998764E-2  
 1.785000000000000E8    -7.175667285919190E-1   6.107668206095696E-2  
 1.790000000000000E8    -6.849623322486877E-1   2.092037349939346E-1  
 1.795000000000000E8    -6.281734108924866E-1   3.471151292324066E-1  
 1.800000000000000E8    -5.408871769905090E-1   4.681182205677033E-1  
 1.805000000000000E8    -4.306091964244843E-1   5.698598623275757E-1  
 1.810000000000000E8    -3.018440008163452E-1   6.465631127357483E-1  
 1.815000000000000E8    -1.606954932212830E-1   6.944205164909363E-1  
 1.820000000000000E8    -1.209869794547558E-2   7.122250199317932E-1  
 1.825000000000000E8     1.375273466110230E-1   6.958552598953247E-1  
 1.830000000000000E8     2.809430658817291E-1   6.510256528854370E-1  
 1.835000000000000E8     4.132560193538666E-1   5.752407312393189E-1  
 1.840000000000000E8     5.265809297561646E-1   4.737570583820343E-1  
 1.845000000000000E8     6.157057881355286E-1   3.480785489082336E-1  
 1.850000000000000E8     6.767297387123108E-1   2.052869945764542E-1  
 1.855000000000000E8     7.039899230003357E-1   5.297210812568665E-2  
 1.860000000000000E8     6.980759501457214E-1  -1.021166890859604E-1  
 1.865000000000000E8     6.571963429450989E-1  -2.536561191082001E-1  
 1.870000000000000E8     5.844879150390625E-1  -3.913448452949524E-1  
 1.875000000000000E8     4.825872778892517E-1  -5.105425715446472E-1  
 1.880000000000000E8     3.562854230403900E-1  -6.051713228225708E-1  
 1.885000000000000E8     2.121266275644302E-1  -6.669325828552246E-1  
 1.890000000000000E8     6.049764901399612E-2  -6.965090632438660E-1  
 1.895000000000000E8    -9.513013064861298E-2  -6.908749938011169E-1  
 1.900000000000000E8    -2.447499781847000E-1  -6.504945755004883E-1  
 1.905000000000000E8    -3.806865513324738E-1  -5.806666612625122E-1  
 1.910000000000000E8    -4.989549815654755E-1  -4.835224747657776E-1  
 1.915000000000000E8    -5.903660058975220E-1  -3.629360496997833E-1  
 1.920000000000000E8    -6.529134511947632E-1  -2.278227955102921E-1  
 1.925000000000000E8    -6.852199435234070E-1  -7.999565452337265E-2  
 1.930000000000000E8    -6.849049925804138E-1   6.729288399219513E-2  
 1.935000000000000E8    -6.567885279655457E-1   2.097402960062027E-1  
 1.940000000000000E8    -5.954920053482056E-1   3.448028862476349E-1  
 1.945000000000000E8    -5.060043334960938E-1   4.614383876323700E-1  
 1.950000000000000E8    -3.989917933940888E-1   5.576639771461487E-1  
 1.955000000000000E8    -2.723000049591065E-1   6.282960176467896E-1  
 1.960000000000000E8    -1.344867646694183E-1   6.715011596679688E-1  
 1.965000000000000E8     1.053791400045157E-2   6.831699013710022E-1  
 1.970000000000000E8     1.559876650571823E-1   6.660495996475220E-1  
 1.975000000000000E8     2.958801686763763E-1   6.180552840232849E-1  
 1.980000000000000E8     4.214810431003571E-1   5.406859517097473E-1  
 1.985000000000000E8     5.265657305717468E-1   4.369033575057983E-1  
 1.990000000000000E8     6.085473299026489E-1   3.120543360710144E-1  
 1.995000000000000E8     6.627140641212463E-1   1.710344403982163E-1  
 2.000000000000000E8     6.826555728912354E-1   2.034482918679714E-2  
