#  HZ   S   RI   R     50.00 
! Rohde & Schwarz ZVA40 2Ports - Version 3.12 - 1145.1110k40 SN: 100360
! Date: 2019-07-29 16:23:29
! Measurement: S11 
! 
 1.000000000000000E8     4.307486712932587E-1  -5.655897259712219E-1  
 1.005000000000000E8     2.966353297233582E-1  -6.502674818038940E-1  
 1.010000000000000E8     1.444238871335983E-1  -7.018822431564331E-1  
 1.015000000000000E8    -1.576231420040131E-2  -7.126668095588684E-1  
 1.020000000000000E8    -1.767512857913971E-1  -6.911044120788574E-1  
 1.025000000000000E8    -3.274624049663544E-1  -6.285727024078369E-1  
 1.030000000000000E8    -4.570446312427521E-1  -5.337126255035400E-1  
 1.035000000000000E8    -5.603318810462952E-1  -4.136683642864227E-1  
 1.040000000000000E8    -6.362234950065613E-1  -2.758906781673431E-1  
 1.045000000000000E8    -6.786954402923584E-1  -1.187826469540596E-1  
 1.050000000000000E8    -6.848021149635315E-1   4.180409386754036E-2  
 1.055000000000000E8    -6.489113569259644E-1   1.978645473718643E-1  
 1.060000000000000E8    -5.816385149955750E-1   3.402191698551178E-1  
 1.065000000000000E8    -4.780040085315704E-1   4.655344188213348E-1  
 1.070000000000000E8    -3.469682633876801E-1   5.609765648841858E-1  
 1.075000000000000E8    -2.027326375246048E-1   6.130740642547607E-1  
 1.080000000000000E8    -5.876364186406136E-2   6.134840250015259E-1  
 1.085000000000000E8     4.735616967082024E-2   5.972443222999573E-1  
 1.090000000000000E8     1.604353338479996E-1   5.930629968643189E-1  
 1.095000000000000E8     2.919051051139832E-1   5.639430284500122E-1  
 1.100000000000000E8     4.185460805892944E-1   4.967243671417236E-1  
 1.105000000000000E8     5.322615504264832E-1   3.958018720149994E-1  
 1.110000000000000E8     6.193589568138123E-1   2.703854143619537E-1  
 1.115000000000000E8     6.780456900596619E-1   1.234285309910774E-1  
 1.120000000000000E8     6.961370706558228E-1  -3.655901551246643E-2  
 1.125000000000000E8     6.787638664245606E-1  -1.969340592622757E-1  
 1.130000000000000E8     6.205408573150635E-1  -3.495791852474213E-1  
 1.135000000000000E8     5.262988209724426E-1  -4.866422712802887E-1  
 1.140000000000000E8     4.045531451702118E-1  -5.985866785049439E-1  
 1.145000000000000E8     2.561250030994415E-1  -6.791064739227295E-1  
 1.150000000000000E8     9.304799884557724E-2  -7.189333438873291E-1  
 1.155000000000000E8    -7.484037429094315E-2  -7.188579440116882E-1  
 1.160000000000000E8    -2.385623306035996E-1  -6.803791522979736E-1  
 1.165000000000000E8    -3.887455463409424E-1  -6.027650237083435E-1  
 1.170000000000000E8    -5.169302821159363E-1  -4.957504570484161E-1  
 1.175000000000000E8    -6.134825348854065E-1  -3.603483736515045E-1  
 1.180000000000000E8    -6.762068867683411E-1  -2.064906507730484E-1  
 1.185000000000000E8    -7.006183266639710E-1  -4.020564630627632E-2  
 1.190000000000000E8    -6.863955259323120E-1   1.268374770879746E-1  
 1.195000000000000E8    -6.317126154899597E-1   2.862342000007629E-1  
 1.200000000000000E8    -5.430719852447510E-1   4.218798279762268E-1  
 1.205000000000000E8    -4.221327304840088E-1   5.349286198616028E-1  
 1.210000000000000E8    -2.838485836982727E-1   6.124044656753540E-1  
 1.215000000000000E8    -1.302444189786911E-1   6.614846587181091E-1  
 1.220000000000000E8     2.876141108572483E-2   6.672525405883789E-1  
 1.225000000000000E8     1.831331402063370E-1   6.397885680198669E-1  
 1.230000000000000E8     3.235535919666290E-1   5.773778557777405E-1  
 1.235000000000000E8     4.461841583251953E-1   4.856498539447784E-1  
 1.240000000000000E8     5.439552068710327E-1   3.708330690860748E-1  
 1.245000000000000E8     6.099594235420227E-1   2.385791987180710E-1  
 1.250000000000000E8     6.476304531097412E-1   9.261107444763184E-2  
 1.255000000000000E8     6.508955359458923E-1  -5.503696203231812E-2  
 1.260000000000000E8     6.189694404602051E-1  -1.997657865285873E-1  
 1.265000000000000E8     5.571539998054504E-1  -3.320361077785492E-1  
 1.270000000000000E8     4.668342769145966E-1  -4.452872574329376E-1  
 1.275000000000000E8     3.531189560890198E-1  -5.368956327438355E-1  
 1.280000000000000E8     2.208747565746307E-1  -6.005703806877136E-1  
 1.285000000000000E8     7.689888775348663E-2  -6.319951415061951E-1  
 1.290000000000000E8    -7.217036187648773E-2  -6.291846036911011E-1  
 1.295000000000000E8    -2.137240320444107E-1  -5.876556634902954E-1  
 1.300000000000000E8    -3.445450961589813E-1  -5.149211287498474E-1  
 1.305000000000000E8    -4.523015618324280E-1  -4.128953814506531E-1  
 1.310000000000000E8    -5.332673788070679E-1  -2.904414236545563E-1  
 1.315000000000000E8    -5.837894082069397E-1  -1.454771459102631E-1  
 1.320000000000000E8    -5.961062908172607E-1   7.364921737462282E-3  
 1.325000000000000E8    -5.686292052268982E-1   1.625310629606247E-1  
 1.330000000000000E8    -5.038546919822693E-1   3.066574335098267E-1  
 1.335000000000000E8    -3.983385264873505E-1   4.309342801570892E-1  
 1.340000000000000E8    -2.609417140483856E-1   5.252350568771362E-1  
 1.345000000000000E8    -9.769719839096069E-2   5.762236714363098E-1  
 1.350000000000000E8     7.968471199274063E-2   5.794923305511475E-1  
 1.355000000000000E8     2.498114556074143E-1   5.277447104454041E-1  
 1.360000000000000E8     3.964207470417023E-1   4.206019341945648E-1  
 1.365000000000000E8     5.019489526748657E-1   2.734899520874023E-1  
 1.370000000000000E8     5.562712550163269E-1   1.007773801684380E-1  
 1.375000000000000E8     5.504466295242310E-1  -7.842949777841568E-2  
 1.380000000000000E8     4.838722944259644E-1  -2.458535134792328E-1  
 1.385000000000000E8     3.649310171604157E-1  -3.799347579479218E-1  
 1.390000000000000E8     2.071548104286194E-1  -4.597545266151428E-1  
 1.395000000000000E8     3.637664765119553E-2  -4.753527343273163E-1  
 1.400000000000000E8    -1.196946203708649E-1  -4.254740476608276E-1  
 1.405000000000000E8    -2.367773652076721E-1  -3.252258002758026E-1  
 1.410000000000000E8    -2.977932691574097E-1  -1.960436403751373E-1  
 1.415000000000000E8    -3.032090663909912E-1  -6.867741048336029E-2  
 1.420000000000000E8    -2.609117925167084E-1   3.346330672502518E-2  
 1.425000000000000E8    -1.994440406560898E-1   9.532259404659271E-2  
 1.430000000000000E8    -1.394919455051422E-1   1.312176883220673E-1  
 1.435000000000000E8    -8.051276952028275E-2   1.485347300767899E-1  
 1.440000000000000E8    -2.792182005941868E-2   1.440113931894302E-1  
 1.445000000000000E8    -2.711400447878987E-4   1.253025829792023E-1  
 1.450000000000000E8    -7.269492372870445E-3   1.258685439825058E-1  
 1.455000000000000E8    -1.296335645020008E-2   1.940896064043045E-1  
 1.460000000000000E8     9.217502921819687E-2   3.257903456687927E-1  
 1.465000000000000E8     3.763140439987183E-1   3.367360532283783E-1  
 1.470000000000000E8     6.118166446685791E-1   9.244611859321594E-2  
 1.475000000000000E8     6.348312497138977E-1  -2.428464889526367E-1  
 1.480000000000000E8     4.859628379344940E-1  -5.118704438209534E-1  
 1.485000000000000E8     2.571206092834473E-1  -6.713079810142517E-1  
 1.490000000000000E8     8.333398960530758E-3  -7.252950072288513E-1  
 1.495000000000000E8    -2.284969687461853E-1  -6.929529309272766E-1  
 1.500000000000000E8    -4.330322742462158E-1  -5.885265469551086E-1  
 1.505000000000000E8    -5.857608318328857E-1  -4.350460767745972E-1  
 1.510000000000000E8    -6.833357810974121E-1  -2.507633566856384E-1  
 1.515000000000000E8    -7.218785881996155E-1  -5.280368775129318E-2  
 1.520000000000000E8    -7.078762650489807E-1   1.445232331752777E-1  
 1.525000000000000E8    -6.396763324737549E-1   3.260233104228973E-1  
 1.530000000000000E8    -5.290783047676086E-1   4.808017313480377E-1  
 1.535000000000000E8    -3.828066289424896E-1   5.986756682395935E-1  
 1.540000000000000E8    -2.162327617406845E-1   6.765585541725159E-1  
 1.545000000000000E8    -3.363228589296341E-2   7.054996490478516E-1  
 1.550000000000000E8     1.478072106838226E-1   6.891511678695679E-1  
 1.555000000000000E8     3.161866962909699E-1   6.279390454292297E-1  
 1.560000000000000E8     4.648810625076294E-1   5.267687439918518E-1  
 1.565000000000000E8     5.817301869392395E-1   3.932490944862366E-1  
 1.570000000000000E8     6.624193191528320E-1   2.366441637277603E-1  
 1.575000000000000E8     7.018912434577942E-1   6.810536980628967E-2  
 1.580000000000000E8     6.974994540214539E-1  -1.074116602540016E-1  
 1.585000000000000E8     6.524060368537903E-1  -2.720703482627869E-1  
 1.590000000000000E8     5.704610347747803E-1  -4.236455857753754E-1  
 1.595000000000000E8     4.552575349807739E-1  -5.481962561607361E-1  
 1.600000000000000E8     3.148030042648315E-1  -6.418347358703613E-1  
 1.605000000000000E8     1.558973193168640E-1  -6.988235116004944E-1  
 1.610000000000000E8    -9.540188126266003E-3  -7.175449728965759E-1  
 1.615000000000000E8    -1.743861585855484E-1  -6.961057782173157E-1  
 1.620000000000000E8    -3.265158832073212E-1  -6.369921565055847E-1  
 1.625000000000000E8    -4.624589979648590E-1  -5.483795404434204E-1  
 1.630000000000000E8    -5.735945701599121E-1  -4.291230142116547E-1  
 1.635000000000000E8    -6.535787582397461E-1  -2.911905646324158E-1  
 1.640000000000000E8    -7.018882632255554E-1  -1.357333958148956E-1  
 1.645000000000000E8    -7.115280032157898E-1   2.170961350202560E-2  
 1.650000000000000E8    -6.871547102928162E-1   1.804973930120468E-1  
 1.655000000000000E8    -6.249594092369080E-1   3.288868367671967E-1  
 1.660000000000000E8    -5.355750322341919E-1   4.594340622425079E-1  
 1.665000000000000E8    -4.159814715385437E-1   5.655012130737305E-1  
 1.670000000000000E8    -2.760550081729889E-1   6.440773606300354E-1  
 1.675000000000000E8    -1.228681877255440E-1   6.857010722160339E-1  
 1.680000000000000E8     3.476903960108757E-2   6.952806711196899E-1  
 1.685000000000000E8     1.932501047849655E-1   6.659480333328247E-1  
 1.690000000000000E8     3.406486213207245E-1   6.027502417564392E-1  
 1.695000000000000E8     4.684081673622131E-1   5.073109269142151E-1  
 1.700000000000000E8     5.742130875587463E-1   3.852474391460419E-1  
 1.705000000000000E8     6.486973166465759E-1   2.429975122213364E-1  
 1.710000000000000E8     6.887109875679016E-1   8.696936070919037E-2  
 1.715000000000000E8     6.921828389167786E-1  -7.467098534107208E-2  
 1.720000000000000E8     6.573820710182190E-1  -2.326396703720093E-1  
 1.725000000000000E8     5.874742865562439E-1  -3.799722194671631E-1  
 1.730000000000000E8     4.869846105575562E-1  -5.044475197792053E-1  
 1.735000000000000E8     3.600681126117706E-1  -6.039710640907288E-1  
 1.740000000000000E8     2.148548364639282E-1  -6.718159914016724E-1  
 1.745000000000000E8     6.000366434454918E-2  -7.052916288375855E-1  
 1.750000000000000E8    -9.717008471488953E-2  -7.007932066917419E-1  
 1.755000000000000E8    -2.496359646320343E-1  -6.639229059219360E-1  
 1.760000000000000E8    -3.879567384719849E-1  -5.958096981048584E-1  
 1.765000000000000E8    -5.069983601570129E-1  -4.999174475669861E-1  
 1.770000000000000E8    -6.023012399673462E-1  -3.795121014118195E-1  
 1.775000000000000E8    -6.705759763717651E-1  -2.423065453767777E-1  
 1.780000000000000E8    -7.054843306541443E-1  -9.573466330766678E-2  
 1.785000000000000E8    -7.111638188362122E-1   5.177752673625946E-2  
 1.790000000000000E8    -6.828339099884033E-1   2.010160386562347E-1  
 1.795000000000000E8    -6.240725517272949E-1   3.377232551574707E-1  
 1.800000000000000E8    -5.419532656669617E-1   4.587686657905579E-1  
 1.805000000000000E8    -4.346687495708466E-1   5.601488947868347E-1  
 1.810000000000000E8    -3.071035444736481E-1   6.389719247817993E-1  
 1.815000000000000E8    -1.689405292272568E-1   6.874547600746155E-1  
 1.820000000000000E8    -2.109541371464729E-2   7.064926624298096E-1  
 1.825000000000000E8     1.282917559146881E-1   6.957766413688660E-1  
 1.830000000000000E8     2.714560031890869E-1   6.518764495849609E-1  
 1.835000000000000E8     4.046475887298584E-1   5.796276926994324E-1  
 1.840000000000000E8     5.177621245384216E-1   4.783410429954529E-1  
 1.845000000000000E8     6.086356043815613E-1   3.533626198768616E-1  
 1.850000000000000E8     6.708262562751770E-1   2.140033543109894E-1  
 1.855000000000000E8     6.991847157478333E-1   6.093800812959671E-2  
 1.860000000000000E8     6.953718662261963E-1  -9.432384371757507E-2  
 1.865000000000000E8     6.568170785903931E-1  -2.452062070369721E-1  
 1.870000000000000E8     5.856170058250427E-1  -3.849902749061585E-1  
 1.875000000000000E8     4.837836921215057E-1  -5.038813948631287E-1  
 1.880000000000000E8     3.586045205593109E-1  -5.969203114509583E-1  
 1.885000000000000E8     2.163606733083725E-1  -6.617250442504883E-1  
 1.890000000000000E8     6.346991658210754E-2  -6.927947402000427E-1  
 1.895000000000000E8    -9.118402749300003E-2  -6.876730322837830E-1  
 1.900000000000000E8    -2.405087500810623E-1  -6.492133736610413E-1  
 1.905000000000000E8    -3.759102821350098E-1  -5.794828534126282E-1  
 1.910000000000000E8    -4.919972419738770E-1  -4.821310639381409E-1  
 1.915000000000000E8    -5.859747529029846E-1  -3.637673556804657E-1  
 1.920000000000000E8    -6.492788791656494E-1  -2.286878973245621E-1  
 1.925000000000000E8    -6.804754734039307E-1  -8.367600291967392E-2  
 1.930000000000000E8    -6.819122433662415E-1   6.478647142648697E-2  
 1.935000000000000E8    -6.507776379585266E-1   2.059357613325119E-1  
 1.940000000000000E8    -5.919697880744934E-1   3.404648303985596E-1  
 1.945000000000000E8    -5.074777603149414E-1   4.570880234241486E-1  
 1.950000000000000E8    -3.990433216094971E-1   5.542157292366028E-1  
 1.955000000000000E8    -2.746022045612335E-1   6.224652528762817E-1  
 1.960000000000000E8    -1.377811133861542E-1   6.678513884544373E-1  
 1.965000000000000E8     6.976881995797157E-3   6.801861524581909E-1  
 1.970000000000000E8     1.504290997982025E-1   6.636702418327332E-1  
 1.975000000000000E8     2.886196374893189E-1   6.172736287117004E-1  
 1.980000000000000E8     4.136004149913788E-1   5.398656725883484E-1  
 1.985000000000000E8     5.190066695213318E-1   4.387830495834351E-1  
 1.990000000000000E8     6.002404689788818E-1   3.176601231098175E-1  
 1.995000000000000E8     6.549218893051148E-1   1.784415692090988E-1  
 2.000000000000000E8     6.771279573440552E-1   3.110043145716190E-2  
