#  HZ   S   RI   R     50.00 
! Rohde & Schwarz ZVA40 2Ports - Version 3.12 - 1145.1110k40 SN: 100360
! Date: 2019-07-29 16:24:11
! Measurement: S11 
! 
 1.000000000000000E8     4.095495641231537E-1  -6.052194237709045E-1  
 1.005000000000000E8     2.658075094223023E-1  -6.792421340942383E-1  
 1.010000000000000E8     1.084371730685234E-1  -7.239370346069336E-1  
 1.015000000000000E8    -5.622640624642372E-2  -7.309019565582275E-1  
 1.020000000000000E8    -2.174298912286758E-1  -6.949346065521240E-1  
 1.025000000000000E8    -3.641500473022461E-1  -6.269072294235230E-1  
 1.030000000000000E8    -4.931224882602692E-1  -5.258212685585022E-1  
 1.035000000000000E8    -5.945475697517395E-1  -3.973210752010346E-1  
 1.040000000000000E8    -6.641422510147095E-1  -2.484980076551437E-1  
 1.045000000000000E8    -6.988973021507263E-1  -9.056212753057480E-2  
 1.050000000000000E8    -6.983911395072937E-1   7.254392653703690E-2  
 1.055000000000000E8    -6.601389050483704E-1   2.293489128351212E-1  
 1.060000000000000E8    -5.837495326995850E-1   3.733046948909760E-1  
 1.065000000000000E8    -4.748454093933106E-1   4.978484213352203E-1  
 1.070000000000000E8    -3.454687893390656E-1   5.938006043434143E-1  
 1.075000000000000E8    -1.940723657608032E-1   6.595016717910767E-1  
 1.080000000000000E8    -3.444793447852135E-2   6.791755557060242E-1  
 1.085000000000000E8     1.195271164178848E-1   6.580219864845276E-1  
 1.090000000000000E8     2.591536343097687E-1   6.130213141441345E-1  
 1.095000000000000E8     3.850998878479004E-1   5.395064353942871E-1  
 1.100000000000000E8     4.961389005184174E-1   4.432666301727295E-1  
 1.105000000000000E8     5.854737758636475E-1   3.224008977413178E-1  
 1.110000000000000E8     6.465523838996887E-1   1.836760491132736E-1  
 1.115000000000000E8     6.729814410209656E-1   3.556219860911369E-2  
 1.120000000000000E8     6.646571755409241E-1  -1.151901856064796E-1  
 1.125000000000000E8     6.224301457405090E-1  -2.622839510440826E-1  
 1.130000000000000E8     5.451902151107788E-1  -3.930472433567047E-1  
 1.135000000000000E8     4.486595690250397E-1  -4.984802901744843E-1  
 1.140000000000000E8     3.281433582305908E-1  -5.820258259773254E-1  
 1.145000000000000E8     1.988158375024796E-1  -6.350945830345154E-1  
 1.150000000000000E8     6.268361955881119E-2  -6.648122072219849E-1  
 1.155000000000000E8    -8.138813823461533E-2  -6.674943566322327E-1  
 1.160000000000000E8    -2.273080796003342E-1  -6.421470642089844E-1  
 1.165000000000000E8    -3.697289526462555E-1  -5.795636177062988E-1  
 1.170000000000000E8    -4.990119040012360E-1  -4.829339683055878E-1  
 1.175000000000000E8    -6.020187139511108E-1  -3.541775345802307E-1  
 1.180000000000000E8    -6.701002717018127E-1  -2.019607424736023E-1  
 1.185000000000000E8    -6.991394162178040E-1  -3.505629301071167E-2  
 1.190000000000000E8    -6.856274008750916E-1   1.342707723379135E-1  
 1.195000000000000E8    -6.304450035095215E-1   2.933322191238403E-1  
 1.200000000000000E8    -5.383731722831726E-1   4.342877268791199E-1  
 1.205000000000000E8    -4.175591766834259E-1   5.465595722198486E-1  
 1.210000000000000E8    -2.719953954219818E-1   6.274540424346924E-1  
 1.215000000000000E8    -1.173900812864304E-1   6.719658374786377E-1  
 1.220000000000000E8     4.740256816148758E-2   6.755508780479431E-1  
 1.225000000000000E8     2.018031179904938E-1   6.454678773880005E-1  
 1.230000000000000E8     3.487064242362976E-1   5.755395293235779E-1  
 1.235000000000000E8     4.710518419742584E-1   4.769563376903534E-1  
 1.240000000000000E8     5.637561678886414E-1   3.530121743679047E-1  
 1.245000000000000E8     6.286709308624268E-1   2.156796455383301E-1  
 1.250000000000000E8     6.598943471908569E-1   6.385429948568344E-2  
 1.255000000000000E8     6.541396379470825E-1  -8.621189743280411E-2  
 1.260000000000000E8     6.154155135154724E-1  -2.326817065477371E-1  
 1.265000000000000E8     5.447514057159424E-1  -3.631576597690582E-1  
 1.270000000000000E8     4.442550539970398E-1  -4.757100045681000E-1  
 1.275000000000000E8     3.214555382728577E-1  -5.595899224281311E-1  
 1.280000000000000E8     1.835261434316635E-1  -6.150393486022949E-1  
 1.285000000000000E8     3.474937751889229E-2  -6.355875134468079E-1  
 1.290000000000000E8    -1.132964342832565E-1  -6.192187070846558E-1  
 1.295000000000000E8    -2.555310726165772E-1  -5.666358470916748E-1  
 1.300000000000000E8    -3.787074685096741E-1  -4.800972938537598E-1  
 1.305000000000000E8    -4.784058034420013E-1  -3.649819195270538E-1  
 1.310000000000000E8    -5.439963340759277E-1  -2.311115264892578E-1  
 1.315000000000000E8    -5.727329850196838E-1  -8.355388045310974E-2  
 1.320000000000000E8    -5.624871850013733E-1   6.576611846685410E-2  
 1.325000000000000E8    -5.124783515930176E-1   2.099938243627548E-1  
 1.330000000000000E8    -4.274602532386780E-1   3.335601687431335E-1  
 1.335000000000000E8    -3.126807510852814E-1   4.291404485702515E-1  
 1.340000000000000E8    -1.715829521417618E-1   4.897253513336182E-1  
 1.345000000000000E8    -2.103476598858833E-2   5.034955739974976E-1  
 1.350000000000000E8     1.252627968788147E-1   4.707646965980530E-1  
 1.355000000000000E8     2.508257329463959E-1   3.947201967239380E-1  
 1.360000000000000E8     3.410155475139618E-1   2.893432676792145E-1  
 1.365000000000000E8     3.911072015762329E-1   1.662541180849075E-1  
 1.370000000000000E8     3.986076414585114E-1   4.053022712469101E-2  
 1.375000000000000E8     3.675317466259003E-1  -7.330495119094849E-2  
 1.380000000000000E8     3.044646680355072E-1  -1.642069965600967E-1  
 1.385000000000000E8     2.209063321352005E-1  -2.227930724620819E-1  
 1.390000000000000E8     1.297634392976761E-1  -2.435922622680664E-1  
 1.395000000000000E8     5.023990571498871E-2  -2.279806584119797E-1  
 1.400000000000000E8    -4.149374552071095E-3  -1.886203885078430E-1  
 1.405000000000000E8    -2.711936086416245E-2  -1.422419548034668E-1  
 1.410000000000000E8    -2.394458092749119E-2  -1.071462035179138E-1  
 1.415000000000000E8    -6.668432615697384E-3  -9.342353045940399E-2  
 1.420000000000000E8     6.729064509272575E-3  -1.046683490276337E-1  
 1.425000000000000E8    -2.973391208797693E-3  -1.295129060745239E-1  
 1.430000000000000E8    -3.586262464523315E-2  -1.443368196487427E-1  
 1.435000000000000E8    -7.360623776912689E-2  -1.386717557907105E-1  
 1.440000000000000E8    -1.052643060684204E-1  -1.249153390526772E-1  
 1.445000000000000E8    -1.399440765380859E-1  -1.090638786554337E-1  
 1.450000000000000E8    -1.928262859582901E-1  -8.309459686279297E-2  
 1.455000000000000E8    -2.675879597663879E-1  -1.317527331411839E-2  
 1.460000000000000E8    -3.181343376636505E-1   1.503920108079910E-1  
 1.465000000000000E8    -2.252657711505890E-1   3.974322080612183E-1  
 1.470000000000000E8     8.693289756774902E-2   5.423727631568909E-1  
 1.475000000000000E8     4.505603313446045E-1   4.223282039165497E-1  
 1.480000000000000E8     6.529557108879089E-1   1.032599881291390E-1  
 1.485000000000000E8     6.377240419387817E-1  -2.536649107933044E-1  
 1.490000000000000E8     4.632849097251892E-1  -5.295106172561646E-1  
 1.495000000000000E8     2.053713947534561E-1  -6.860425472259522E-1  
 1.500000000000000E8    -7.013250142335892E-2  -7.206376791000366E-1  
 1.505000000000000E8    -3.222201168537140E-1  -6.515250205993652E-1  
 1.510000000000000E8    -5.241218805313110E-1  -5.079887509346008E-1  
 1.515000000000000E8    -6.579210758209229E-1  -3.136964142322540E-1  
 1.520000000000000E8    -7.197641730308533E-1  -9.862915426492691E-2  
 1.525000000000000E8    -7.136111259460449E-1   1.173518300056458E-1  
 1.530000000000000E8    -6.481150388717651E-1   3.195111453533173E-1  
 1.535000000000000E8    -5.290040373802185E-1   4.855788350105286E-1  
 1.540000000000000E8    -3.706893026828766E-1   6.096570491790772E-1  
 1.545000000000000E8    -1.893642991781235E-1   6.875004768371582E-1  
 1.550000000000000E8     1.796195632778108E-3   7.102501392364502E-1  
 1.555000000000000E8     1.918994784355164E-1   6.828947067260742E-1  
 1.560000000000000E8     3.667245209217072E-1   6.052926778793335E-1  
 1.565000000000000E8     5.109289884567261E-1   4.886878430843353E-1  
 1.570000000000000E8     6.220281720161438E-1   3.386984467506409E-1  
 1.575000000000000E8     6.882016658782959E-1   1.683912277221680E-1  
 1.580000000000000E8     7.124210000038147E-1  -1.136841811239719E-2  
 1.585000000000000E8     6.874966621398926E-1  -1.881660819053650E-1  
 1.590000000000000E8     6.215282082557678E-1  -3.547454476356506E-1  
 1.595000000000000E8     5.184121727943420E-1  -4.962520897388458E-1  
 1.600000000000000E8     3.823251426219940E-1  -6.091220974922180E-1  
 1.605000000000000E8     2.290931493043900E-1  -6.832973361015320E-1  
 1.610000000000000E8     5.890876427292824E-2  -7.210786342620850E-1  
 1.615000000000000E8    -1.115027666091919E-1  -7.138087749481201E-1  
 1.620000000000000E8    -2.734400033950806E-1  -6.703317761421204E-1  
 1.625000000000000E8    -4.200071096420288E-1  -5.905427932739258E-1  
 1.630000000000000E8    -5.418303012847900E-1  -4.770926535129547E-1  
 1.635000000000000E8    -6.354658007621765E-1  -3.416093885898590E-1  
 1.640000000000000E8    -6.948024630546570E-1  -1.881527155637741E-1  
 1.645000000000000E8    -7.179157733917236E-1  -2.687752805650234E-2  
 1.650000000000000E8    -7.016774415969849E-1   1.362323760986328E-1  
 1.655000000000000E8    -6.528325676918030E-1   2.880866229534149E-1  
 1.660000000000000E8    -5.678304433822632E-1   4.264943897724152E-1  
 1.665000000000000E8    -4.553523659706116E-1   5.433907508850098E-1  
 1.670000000000000E8    -3.197579979896545E-1   6.292887926101685E-1  
 1.675000000000000E8    -1.655153930187225E-1   6.829513311386108E-1  
 1.680000000000000E8    -4.309824202209711E-3   7.025257945060730E-1  
 1.685000000000000E8     1.579439491033554E-1   6.813718676567078E-1  
 1.690000000000000E8     3.081780076026917E-1   6.252971887588501E-1  
 1.695000000000000E8     4.446164965629578E-1   5.385013222694397E-1  
 1.700000000000000E8     5.575842261314392E-1   4.194673597812653E-1  
 1.705000000000000E8     6.403927206993103E-1   2.798999547958374E-1  
 1.710000000000000E8     6.873565912246704E-1   1.221986487507820E-1  
 1.715000000000000E8     7.001289725303650E-1  -4.157117009162903E-2  
 1.720000000000000E8     6.733255982398987E-1  -2.026438862085342E-1  
 1.725000000000000E8     6.098166108131409E-1  -3.542220592498779E-1  
 1.730000000000000E8     5.131473541259766E-1  -4.863765239715576E-1  
 1.735000000000000E8     3.890388906002045E-1  -5.915818214416504E-1  
 1.740000000000000E8     2.441279739141464E-1  -6.665357351303101E-1  
 1.745000000000000E8     8.921864628791809E-2  -7.067323923110962E-1  
 1.750000000000000E8    -7.037586718797684E-2  -7.110885381698608E-1  
 1.755000000000000E8    -2.269193083047867E-1  -6.779785156250000E-1  
 1.760000000000000E8    -3.702225685119629E-1  -6.134498119354248E-1  
 1.765000000000000E8    -4.947735667228699E-1  -5.175997018814087E-1  
 1.770000000000000E8    -5.948270559310913E-1  -4.005053341388702E-1  
 1.775000000000000E8    -6.673861742019653E-1  -2.656032145023346E-1  
 1.780000000000000E8    -7.091047167778015E-1  -1.174398213624954E-1  
 1.785000000000000E8    -7.168048620223999E-1   3.463584929704666E-2  
 1.790000000000000E8    -6.934878826141357E-1   1.832830309867859E-1  
 1.795000000000000E8    -6.397300958633423E-1   3.231207728385925E-1  
 1.800000000000000E8    -5.578124523162842E-1   4.484644234180450E-1  
 1.805000000000000E8    -4.516874551773071E-1   5.528746843338013E-1  
 1.810000000000000E8    -3.266951739788055E-1   6.349450349807739E-1  
 1.815000000000000E8    -1.856869012117386E-1   6.875788569450378E-1  
 1.820000000000000E8    -3.796615824103355E-2   7.110080718994141E-1  
 1.825000000000000E8     1.110861152410507E-1   7.031457424163818E-1  
 1.830000000000000E8     2.581797242164612E-1   6.634090542793274E-1  
 1.835000000000000E8     3.943236470222473E-1   5.915509462356567E-1  
 1.840000000000000E8     5.103769302368164E-1   4.931183457374573E-1  
 1.845000000000000E8     6.040936708450317E-1   3.723974227905273E-1  
 1.850000000000000E8     6.681979298591614E-1   2.320324033498764E-1  
 1.855000000000000E8     7.029412984848023E-1   8.000112324953079E-2  
 1.860000000000000E8     7.027733325958252E-1  -7.672607153654099E-2  
 1.865000000000000E8     6.676985025405884E-1  -2.286678403615952E-1  
 1.870000000000000E8     5.988902449607849E-1  -3.701442480087280E-1  
 1.875000000000000E8     5.014927983283997E-1  -4.941219985485077E-1  
 1.880000000000000E8     3.786359429359436E-1  -5.929008722305298E-1  
 1.885000000000000E8     2.379247993230820E-1  -6.608492136001587E-1  
 1.890000000000000E8     8.444146066904068E-2  -6.947539448738098E-1  
 1.895000000000000E8    -7.203482091426849E-2  -6.948074102401733E-1  
 1.900000000000000E8    -2.238481193780899E-1  -6.607317924499512E-1  
 1.905000000000000E8    -3.615487217903137E-1  -5.938798189163208E-1  
 1.910000000000000E8    -4.812552928924561E-1  -5.004481673240662E-1  
 1.915000000000000E8    -5.788071751594544E-1  -3.833347856998444E-1  
 1.920000000000000E8    -6.465212702751160E-1  -2.475707232952118E-1  
 1.925000000000000E8    -6.827833056449890E-1  -1.016817614436150E-1  
 1.930000000000000E8    -6.893052458763123E-1   4.486935585737228E-2  
 1.935000000000000E8    -6.632579565048218E-1   1.923862397670746E-1  
 1.940000000000000E8    -6.054504513740540E-1   3.269450366497040E-1  
 1.945000000000000E8    -5.232398509979248E-1   4.467818140983582E-1  
 1.950000000000000E8    -4.164390563964844E-1   5.457572937011719E-1  
 1.955000000000000E8    -2.910890281200409E-1   6.218116283416748E-1  
 1.960000000000000E8    -1.544839292764664E-1   6.694669723510742E-1  
 1.965000000000000E8    -9.045193903148174E-3   6.865666508674622E-1  
 1.970000000000000E8     1.366378068923950E-1   6.720749139785767E-1  
 1.975000000000000E8     2.758972048759460E-1   6.279140114784241E-1  
 1.980000000000000E8     4.032488167285919E-1   5.554513335227966E-1  
 1.985000000000000E8     5.133563280105591E-1   4.550642967224121E-1  
 1.990000000000000E8     5.995318293571472E-1   3.326936066150665E-1  
 1.995000000000000E8     6.569378376007080E-1   1.940795481204987E-1  
 2.000000000000000E8     6.830593347549439E-1   4.581027105450630E-2  
