#  HZ   S   RI   R     50.00 
! Rohde & Schwarz ZVA40 2Ports - Version 3.12 - 1145.1110k40 SN: 100360
! Date: 2019-07-29 16:27:45
! Measurement: S11 
! 
 1.000000000000000E8     4.413840174674988E-1  -5.900322794914246E-1  
 1.005000000000000E8     2.959240376949310E-1  -6.758860945701599E-1  
 1.010000000000000E8     1.349809914827347E-1  -7.254303097724915E-1  
 1.015000000000000E8    -3.207547962665558E-2  -7.347611188888550E-1  
 1.020000000000000E8    -1.967407315969467E-1  -7.033364176750183E-1  
 1.025000000000000E8    -3.483822047710419E-1  -6.356617808341980E-1  
 1.030000000000000E8    -4.808586239814758E-1  -5.371380448341370E-1  
 1.035000000000000E8    -5.870773792266846E-1  -4.084143042564392E-1  
 1.040000000000000E8    -6.577237844467163E-1  -2.616984248161316E-1  
 1.045000000000000E8    -6.932932138442993E-1  -1.023766472935677E-1  
 1.050000000000000E8    -6.904057264328003E-1   5.747054144740105E-2  
 1.055000000000000E8    -6.539276242256165E-1   2.171716392040253E-1  
 1.060000000000000E8    -5.829244852066040E-1   3.601844012737274E-1  
 1.065000000000000E8    -4.789945781230927E-1   4.858270883560181E-1  
 1.070000000000000E8    -3.476930856704712E-1   5.805779695510864E-1  
 1.075000000000000E8    -1.984724998474121E-1   6.449019312858582E-1  
 1.080000000000000E8    -3.563660755753517E-2   6.579667925834656E-1  
 1.085000000000000E8     1.103125512599945E-1   6.338259577751160E-1  
 1.090000000000000E8     2.392448782920837E-1   5.810031294822693E-1  
 1.095000000000000E8     3.505862355232239E-1   5.120743513107300E-1  
 1.100000000000000E8     4.472866654396057E-1   4.254741966724396E-1  
 1.105000000000000E8     5.212736129760742E-1   3.234825432300568E-1  
 1.110000000000000E8     5.738150477409363E-1   2.143346965312958E-1  
 1.115000000000000E8     6.124298572540283E-1   1.012723520398140E-1  
 1.120000000000000E8     6.398028731346130E-1  -2.118857949972153E-2  
 1.125000000000000E8     6.438807845115662E-1  -1.637237966060638E-1  
 1.130000000000000E8     6.074777841567993E-1  -3.163560330867767E-1  
 1.135000000000000E8     5.293785929679871E-1  -4.582149982452393E-1  
 1.140000000000000E8     4.155333340167999E-1  -5.791462063789368E-1  
 1.145000000000000E8     2.687823176383972E-1  -6.638619899749756E-1  
 1.150000000000000E8     1.068389043211937E-1  -7.113552093505859E-1  
 1.155000000000000E8    -6.176963448524475E-2  -7.177687883377075E-1  
 1.160000000000000E8    -2.293444722890854E-1  -6.824992299079895E-1  
 1.165000000000000E8    -3.785176575183868E-1  -6.080049276351929E-1  
 1.170000000000000E8    -5.091176033020020E-1  -5.015968084335327E-1  
 1.175000000000000E8    -6.109409332275391E-1  -3.662156760692596E-1  
 1.180000000000000E8    -6.763097643852234E-1  -2.121573537588120E-1  
 1.185000000000000E8    -7.031210064888001E-1  -4.458090290427208E-2  
 1.190000000000000E8    -6.876821517944336E-1   1.227783262729645E-1  
 1.195000000000000E8    -6.359305977821350E-1   2.848259806632996E-1  
 1.200000000000000E8    -5.456348657608032E-1   4.206341505050659E-1  
 1.205000000000000E8    -4.277966320514679E-1   5.359735488891602E-1  
 1.210000000000000E8    -2.863000631332398E-1   6.176241040229797E-1  
 1.215000000000000E8    -1.302707046270371E-1   6.640279889106751E-1  
 1.220000000000000E8     2.795236930251122E-2   6.717042326927185E-1  
 1.225000000000000E8     1.832133531570435E-1   6.434815526008606E-1  
 1.230000000000000E8     3.263409435749054E-1   5.799918770790100E-1  
 1.235000000000000E8     4.489054977893829E-1   4.877833724021912E-1  
 1.240000000000000E8     5.466076731681824E-1   3.713428080081940E-1  
 1.245000000000000E8     6.165978312492371E-1   2.358521819114685E-1  
 1.250000000000000E8     6.531113982200623E-1   8.914386481046677E-2  
 1.255000000000000E8     6.539170742034912E-1  -6.128357350826263E-2  
 1.260000000000000E8     6.224052309989929E-1  -2.074566036462784E-1  
 1.265000000000000E8     5.574133396148682E-1  -3.413536548614502E-1  
 1.270000000000000E8     4.633649289608002E-1  -4.554482698440552E-1  
 1.275000000000000E8     3.456424474716187E-1  -5.468629598617554E-1  
 1.280000000000000E8     2.099998891353607E-1  -6.089432835578919E-1  
 1.285000000000000E8     6.268202513456345E-2  -6.377590298652649E-1  
 1.290000000000000E8    -8.914255350828171E-2  -6.275278329849243E-1  
 1.295000000000000E8    -2.325734645128250E-1  -5.832986831665039E-1  
 1.300000000000000E8    -3.608701527118683E-1  -5.009258389472961E-1  
 1.305000000000000E8    -4.635037481784821E-1  -3.943634629249573E-1  
 1.310000000000000E8    -5.403668284416199E-1  -2.639587223529816E-1  
 1.315000000000000E8    -5.824238657951355E-1  -1.184727698564529E-1  
 1.320000000000000E8    -5.849547386169434E-1   3.435378521680832E-2  
 1.325000000000000E8    -5.498417019844055E-1   1.845053285360336E-1  
 1.330000000000000E8    -4.725901484489441E-1   3.232777714729309E-1  
 1.335000000000000E8    -3.600350916385651E-1   4.386856257915497E-1  
 1.340000000000000E8    -2.182300835847855E-1   5.165274143218994E-1  
 1.345000000000000E8    -5.354090780019760E-2   5.502690076828003E-1  
 1.350000000000000E8     1.128360927104950E-1   5.325779318809509E-1  
 1.355000000000000E8     2.634918987751007E-1   4.612482190132141E-1  
 1.360000000000000E8     3.813801407814026E-1   3.512142002582550E-1  
 1.365000000000000E8     4.558694064617157E-1   2.109242826700211E-1  
 1.370000000000000E8     4.841091632843018E-1   5.857489630579948E-2  
 1.375000000000000E8     4.598751068115234E-1  -8.867277204990387E-2  
 1.380000000000000E8     3.939808011054993E-1  -2.172022908926010E-1  
 1.385000000000000E8     2.894612252712250E-1  -3.137710988521576E-1  
 1.390000000000000E8     1.634754389524460E-1  -3.625786602497101E-1  
 1.395000000000000E8     3.322662785649300E-2  -3.628714084625244E-1  
 1.400000000000000E8    -7.665458321571350E-2  -3.170154988765717E-1  
 1.405000000000000E8    -1.506739258766174E-1  -2.395066320896149E-1  
 1.410000000000000E8    -1.843618899583817E-1  -1.499651670455933E-1  
 1.415000000000000E8    -1.792391240596771E-1  -6.831917911767960E-2  
 1.420000000000000E8    -1.447574198246002E-1  -1.156078185886145E-2  
 1.425000000000000E8    -1.071929559111595E-1   1.454976480454207E-2  
 1.430000000000000E8    -7.951918244361877E-2   2.343416959047318E-2  
 1.435000000000000E8    -5.708394944667816E-2   2.833615243434906E-2  
 1.440000000000000E8    -3.990329802036285E-2   1.948717236518860E-2  
 1.445000000000000E8    -4.855009168386459E-2   2.843525493517518E-3  
 1.450000000000000E8    -9.435168653726578E-2   7.990293204784393E-3  
 1.455000000000000E8    -1.557784080505371E-1   8.993969857692719E-2  
 1.460000000000000E8    -1.297374814748764E-1   2.770197093486786E-1  
 1.465000000000000E8     1.149108484387398E-1   4.406508207321167E-1  
 1.470000000000000E8     4.664182662963867E-1   3.413275778293610E-1  
 1.475000000000000E8     6.512362957000732E-1   1.510986592620611E-2  
 1.480000000000000E8     6.061646342277527E-1  -3.302243053913117E-1  
 1.485000000000000E8     4.159345328807831E-1  -5.774090886116028E-1  
 1.490000000000000E8     1.607031673192978E-1  -7.046235203742981E-1  
 1.495000000000000E8    -1.014995127916336E-1  -7.201507091522217E-1  
 1.500000000000000E8    -3.336544632911682E-1  -6.497184038162231E-1  
 1.505000000000000E8    -5.194967389106751E-1  -5.145243406295776E-1  
 1.510000000000000E8    -6.486383080482483E-1  -3.346736431121826E-1  
 1.515000000000000E8    -7.177063226699829E-1  -1.338567286729813E-1  
 1.520000000000000E8    -7.221511602401733E-1   7.114468514919281E-2  
 1.525000000000000E8    -6.710890531539917E-1   2.656553387641907E-1  
 1.530000000000000E8    -5.722818374633789E-1   4.351628422737122E-1  
 1.535000000000000E8    -4.342753589153290E-1   5.683001875877380E-1  
 1.540000000000000E8    -2.671172618865967E-1   6.604831814765930E-1  
 1.545000000000000E8    -8.448658883571625E-2   7.040138244628906E-1  
 1.550000000000000E8     1.010402366518974E-1   6.995561718940735E-1  
 1.555000000000000E8     2.771131992340088E-1   6.495505571365356E-1  
 1.560000000000000E8     4.328456521034241E-1   5.558423995971680E-1  
 1.565000000000000E8     5.616461038589478E-1   4.265739917755127E-1  
 1.570000000000000E8     6.507420539855957E-1   2.705693542957306E-1  
 1.575000000000000E8     6.990023851394653E-1   1.013617441058159E-1  
 1.580000000000000E8     7.031922340393066E-1  -7.541762292385101E-2  
 1.585000000000000E8     6.644062399864197E-1  -2.472514957189560E-1  
 1.590000000000000E8     5.857217907905579E-1  -4.044539332389832E-1  
 1.595000000000000E8     4.738095104694367E-1  -5.343164801597595E-1  
 1.600000000000000E8     3.326473534107208E-1  -6.327015161514282E-1  
 1.605000000000000E8     1.769929081201553E-1  -6.956802010536194E-1  
 1.610000000000000E8     1.003408618271351E-2  -7.183896303176880E-1  
 1.615000000000000E8    -1.569495350122452E-1  -7.026694416999817E-1  
 1.620000000000000E8    -3.139989376068115E-1  -6.472940444946289E-1  
 1.625000000000000E8    -4.529027640819550E-1  -5.585713982582092E-1  
 1.630000000000000E8    -5.674325823783875E-1  -4.405309259891510E-1  
 1.635000000000000E8    -6.509354710578919E-1  -3.036273121833801E-1  
 1.640000000000000E8    -7.010220289230347E-1  -1.483681201934815E-1  
 1.645000000000000E8    -7.148418426513672E-1   1.202537026256323E-2  
 1.650000000000000E8    -6.927233338356018E-1   1.726970225572586E-1  
 1.655000000000000E8    -6.344397068023682E-1   3.220528364181519E-1  
 1.660000000000000E8    -5.455734133720398E-1   4.535331130027771E-1  
 1.665000000000000E8    -4.274953901767731E-1   5.614275932312012E-1  
 1.670000000000000E8    -2.886942028999329E-1   6.423786282539368E-1  
 1.675000000000000E8    -1.373935192823410E-1   6.867811679840088E-1  
 1.680000000000000E8     2.311960421502590E-2   6.979669928550720E-1  
 1.685000000000000E8     1.819581687450409E-1   6.723452210426331E-1  
 1.690000000000000E8     3.305224180221558E-1   6.132733225822449E-1  
 1.695000000000000E8     4.634507596492767E-1   5.191363692283630E-1  
 1.700000000000000E8     5.697284936904907E-1   3.992320597171783E-1  
 1.705000000000000E8     6.468237638473511E-1   2.574373781681061E-1  
 1.710000000000000E8     6.903218626976013E-1   1.015013307332993E-1  
 1.715000000000000E8     6.950564384460449E-1  -6.227843090891838E-2  
 1.720000000000000E8     6.647071838378906E-1  -2.216074913740158E-1  
 1.725000000000000E8     5.969942808151245E-1  -3.686107695102692E-1  
 1.730000000000000E8     4.965369701385498E-1  -4.962655901908875E-1  
 1.735000000000000E8     3.707156181335449E-1  -5.987040400505066E-1  
 1.740000000000000E8     2.272889018058777E-1  -6.680088639259338E-1  
 1.745000000000000E8     7.095026969909668E-2  -7.028230428695679E-1  
 1.750000000000000E8    -8.770590275526047E-2  -7.035018205642700E-1  
 1.755000000000000E8    -2.393568903207779E-1  -6.683313846588135E-1  
 1.760000000000000E8    -3.815354406833649E-1  -6.007262468338013E-1  
 1.765000000000000E8    -5.010342001914978E-1  -5.041539669036865E-1  
 1.770000000000000E8    -5.980998873710632E-1  -3.854605555534363E-1  
 1.775000000000000E8    -6.685776710510254E-1  -2.473327070474625E-1  
 1.780000000000000E8    -7.056204676628113E-1  -1.014513820409775E-1  
 1.785000000000000E8    -7.100291252136231E-1   5.038297176361084E-2  
 1.790000000000000E8    -6.844922304153442E-1   1.969691663980484E-1  
 1.795000000000000E8    -6.269030570983887E-1   3.359201252460480E-1  
 1.800000000000000E8    -5.431994199752808E-1   4.588954150676727E-1  
 1.805000000000000E8    -4.362055063247681E-1   5.598458647727966E-1  
 1.810000000000000E8    -3.100534379482269E-1   6.396008133888245E-1  
 1.815000000000000E8    -1.710409820079804E-1   6.888499259948731E-1  
 1.820000000000000E8    -2.138025313615799E-2   7.082461118698120E-1  
 1.825000000000000E8     1.279892027378082E-1   6.963592767715454E-1  
 1.830000000000000E8     2.718301415443420E-1   6.529351472854614E-1  
 1.835000000000000E8     4.038264155387878E-1   5.804078578948975E-1  
 1.840000000000000E8     5.179932713508606E-1   4.799358546733856E-1  
 1.845000000000000E8     6.096960306167603E-1   3.582155108451843E-1  
 1.850000000000000E8     6.721201539039612E-1   2.165171653032303E-1  
 1.855000000000000E8     7.022846341133118E-1   6.449125707149506E-2  
 1.860000000000000E8     6.976073384284973E-1  -9.179873019456863E-2  
 1.865000000000000E8     6.602413058280945E-1  -2.417234182357788E-1  
 1.870000000000000E8     5.897268056869507E-1  -3.803583383560181E-1  
 1.875000000000000E8     4.895420968532562E-1  -5.017737746238709E-1  
 1.880000000000000E8     3.659651279449463E-1  -5.960224270820618E-1  
 1.885000000000000E8     2.236135005950928E-1  -6.617175936698914E-1  
 1.890000000000000E8     7.130391150712967E-2  -6.930297613143921E-1  
 1.895000000000000E8    -8.338622003793716E-2  -6.895619034767151E-1  
 1.900000000000000E8    -2.320141643285751E-1  -6.542958617210388E-1  
 1.905000000000000E8    -3.686262965202332E-1  -5.849640369415283E-1  
 1.910000000000000E8    -4.862858653068543E-1  -4.894986748695374E-1  
 1.915000000000000E8    -5.815708637237549E-1  -3.708363175392151E-1  
 1.920000000000000E8    -6.460634469985962E-1  -2.357069998979569E-1  
 1.925000000000000E8    -6.795229315757752E-1  -9.037110209465027E-2  
 1.930000000000000E8    -6.830490231513977E-1   5.627354606986046E-2  
 1.935000000000000E8    -6.546133160591126E-1   1.996477246284485E-1  
 1.940000000000000E8    -5.963616967201233E-1   3.337622284889221E-1  
 1.945000000000000E8    -5.108649134635925E-1   4.515852332115173E-1  
 1.950000000000000E8    -4.032441675662994E-1   5.488880276679993E-1  
 1.955000000000000E8    -2.787317037582398E-1   6.197622418403626E-1  
 1.960000000000000E8    -1.406860053539276E-1   6.667920351028442E-1  
 1.965000000000000E8     3.698335029184818E-3   6.826587915420532E-1  
 1.970000000000000E8     1.471053212881088E-1   6.666730642318726E-1  
 1.975000000000000E8     2.866850197315216E-1   6.177684068679810E-1  
 1.980000000000000E8     4.136084914207459E-1   5.424967408180237E-1  
 1.985000000000000E8     5.190525650978088E-1   4.404443800449371E-1  
 1.990000000000000E8     6.037407517433167E-1   3.173562288284302E-1  
 1.995000000000000E8     6.584490537643433E-1   1.789739131927490E-1  
 2.000000000000000E8     6.801303625106812E-1   2.960892021656036E-2  
