#  HZ   S   RI   R     50.00 
! Rohde & Schwarz ZVA40 2Ports - Version 3.12 - 1145.1110k40 SN: 100360
! Date: 2019-07-29 16:22:07
! Measurement: S11 
! 
 1.000000000000000E8     4.330895543098450E-1  -5.585694909095764E-1  
 1.005000000000000E8     2.994032204151154E-1  -6.462312340736389E-1  
 1.010000000000000E8     1.456578969955444E-1  -6.992417573928833E-1  
 1.015000000000000E8    -1.726237125694752E-2  -7.131696343421936E-1  
 1.020000000000000E8    -1.769247800111771E-1  -6.906966567039490E-1  
 1.025000000000000E8    -3.254187703132629E-1  -6.300140023231506E-1  
 1.030000000000000E8    -4.548355638980866E-1  -5.347058773040772E-1  
 1.035000000000000E8    -5.596413612365723E-1  -4.175511598587036E-1  
 1.040000000000000E8    -6.359402537345886E-1  -2.741988003253937E-1  
 1.045000000000000E8    -6.760500073432922E-1  -1.232181936502457E-1  
 1.050000000000000E8    -6.805544495582581E-1   4.092004522681236E-2  
 1.055000000000000E8    -6.488050818443298E-1   1.930690854787827E-1  
 1.060000000000000E8    -5.804587602615356E-1   3.384857773780823E-1  
 1.065000000000000E8    -4.763504266738892E-1   4.646068513393402E-1  
 1.070000000000000E8    -3.476265370845795E-1   5.568658113479614E-1  
 1.075000000000000E8    -2.010497748851776E-1   6.055588126182556E-1  
 1.080000000000000E8    -6.899338215589523E-2   6.100041866302490E-1  
 1.085000000000000E8     4.214396700263023E-2   6.090620160102844E-1  
 1.090000000000000E8     1.652399599552155E-1   6.027457118034363E-1  
 1.095000000000000E8     2.992427647113800E-1   5.652298927307129E-1  
 1.100000000000000E8     4.257787168025971E-1   4.934680163860321E-1  
 1.105000000000000E8     5.371448397636414E-1   3.924993574619293E-1  
 1.110000000000000E8     6.242753863334656E-1   2.654784321784973E-1  
 1.115000000000000E8     6.772410273551941E-1   1.175666004419327E-1  
 1.120000000000000E8     6.974827051162720E-1  -3.923629596829414E-2  
 1.125000000000000E8     6.767821311950684E-1  -1.990603208541870E-1  
 1.130000000000000E8     6.196715831756592E-1  -3.513757884502411E-1  
 1.135000000000000E8     5.267717242240906E-1  -4.881238043308258E-1  
 1.140000000000000E8     4.021964967250824E-1  -5.971616506576538E-1  
 1.145000000000000E8     2.553433775901794E-1  -6.774367094039917E-1  
 1.150000000000000E8     9.177888184785843E-2  -7.202063202857971E-1  
 1.155000000000000E8    -7.797993719577789E-2  -7.174349427223206E-1  
 1.160000000000000E8    -2.381409406661987E-1  -6.782819628715515E-1  
 1.165000000000000E8    -3.859083652496338E-1  -6.029145121574402E-1  
 1.170000000000000E8    -5.152238607406616E-1  -4.943880736827850E-1  
 1.175000000000000E8    -6.118016839027405E-1  -3.594649732112885E-1  
 1.180000000000000E8    -6.738608479499817E-1  -2.046834379434586E-1  
 1.185000000000000E8    -6.987654566764832E-1  -3.920339420437813E-2  
 1.190000000000000E8    -6.859992742538452E-1   1.258436888456345E-1  
 1.195000000000000E8    -6.289840936660767E-1   2.828620970249176E-1  
 1.200000000000000E8    -5.418767333030701E-1   4.190899729728699E-1  
 1.205000000000000E8    -4.209899902343750E-1   5.311152935028076E-1  
 1.210000000000000E8    -2.836420834064484E-1   6.107764840126038E-1  
 1.215000000000000E8    -1.306493282318115E-1   6.550704240798950E-1  
 1.220000000000000E8     2.280383929610252E-2   6.643658876419067E-1  
 1.225000000000000E8     1.753809005022049E-1   6.327617764472961E-1  
 1.230000000000000E8     3.157883286476135E-1   5.742139220237732E-1  
 1.235000000000000E8     4.366401135921478E-1   4.859268963336945E-1  
 1.240000000000000E8     5.341968536376953E-1   3.727981448173523E-1  
 1.245000000000000E8     6.047018170356751E-1   2.428297251462936E-1  
 1.250000000000000E8     6.433300971984863E-1   9.969437122344971E-2  
 1.255000000000000E8     6.481333374977112E-1  -4.675846546888351E-2  
 1.260000000000000E8     6.179955005645752E-1  -1.908186972141266E-1  
 1.265000000000000E8     5.582060217857361E-1  -3.235322535037994E-1  
 1.270000000000000E8     4.694796204566956E-1  -4.365195631980896E-1  
 1.275000000000000E8     3.601073324680328E-1  -5.316534042358398E-1  
 1.280000000000000E8     2.293077707290649E-1  -5.943370461463928E-1  
 1.285000000000000E8     8.732518553733826E-2  -6.287007927894592E-1  
 1.290000000000000E8    -5.959961563348770E-2  -6.287021040916443E-1  
 1.295000000000000E8    -2.040811032056809E-1  -5.936032533645630E-1  
 1.300000000000000E8    -3.343893885612488E-1  -5.256931781768799E-1  
 1.305000000000000E8    -4.462080895900726E-1  -4.247109591960907E-1  
 1.310000000000000E8    -5.305754542350769E-1  -3.051491677761078E-1  
 1.315000000000000E8    -5.877719521522522E-1  -1.655665785074234E-1  
 1.320000000000000E8    -6.057451367378235E-1  -1.062852330505848E-2  
 1.325000000000000E8    -5.842235088348389E-1   1.455153673887253E-1  
 1.330000000000000E8    -5.241189599037170E-1   2.936097979545593E-1  
 1.335000000000000E8    -4.258024990558624E-1   4.244570732116699E-1  
 1.340000000000000E8    -2.900821268558502E-1   5.280101895332336E-1  
 1.345000000000000E8    -1.264332234859467E-1   5.903390049934387E-1  
 1.350000000000000E8     5.163077637553215E-2   6.022797822952271E-1  
 1.355000000000000E8     2.280576825141907E-1   5.622629523277283E-1  
 1.360000000000000E8     3.877598345279694E-1   4.703940153121948E-1  
 1.365000000000000E8     5.137515664100647E-1   3.284436464309692E-1  
 1.370000000000000E8     5.915623903274536E-1   1.518039107322693E-1  
 1.375000000000000E8     6.061545610427856E-1  -4.208143800497055E-2  
 1.380000000000000E8     5.569309592247009E-1  -2.320980429649353E-1  
 1.385000000000000E8     4.448143839836121E-1  -3.969160914421082E-1  
 1.390000000000000E8     2.773558795452118E-1  -5.107979178428650E-1  
 1.395000000000000E8     8.427281677722931E-2  -5.536674857139587E-1  
 1.400000000000000E8    -1.090520396828651E-1  -5.222555398941040E-1  
 1.405000000000000E8    -2.660450041294098E-1  -4.211145937442780E-1  
 1.410000000000000E8    -3.693195283412933E-1  -2.744428217411041E-1  
 1.415000000000000E8    -4.003128111362457E-1  -1.110194846987724E-1  
 1.420000000000000E8    -3.686830997467041E-1   3.406867384910584E-2  
 1.425000000000000E8    -2.964204847812653E-1   1.405059099197388E-1  
 1.430000000000000E8    -2.122782617807388E-1   2.094887048006058E-1  
 1.435000000000000E8    -1.177372410893440E-1   2.473067641258240E-1  
 1.440000000000000E8    -2.647798694670200E-2   2.490827441215515E-1  
 1.445000000000000E8     3.810052201151848E-2   2.261797189712524E-1  
 1.450000000000000E8     6.907726079225540E-2   2.115727216005325E-1  
 1.455000000000000E8     1.044823378324509E-1   2.527793049812317E-1  
 1.460000000000000E8     2.495124340057373E-1   3.187662363052368E-1  
 1.465000000000000E8     5.018042922019959E-1   2.311325669288635E-1  
 1.470000000000000E8     6.428188681602478E-1  -5.141324549913406E-2  
 1.475000000000000E8     5.924366116523743E-1  -3.531953990459442E-1  
 1.480000000000000E8     4.196238517761231E-1  -5.754076838493347E-1  
 1.485000000000000E8     1.894459426403046E-1  -6.959681510925293E-1  
 1.490000000000000E8    -5.391721054911614E-2  -7.247067689895630E-1  
 1.495000000000000E8    -2.760845124721527E-1  -6.726921796798706E-1  
 1.500000000000000E8    -4.632119834423065E-1  -5.620819330215454E-1  
 1.505000000000000E8    -6.043234467506409E-1  -4.069029092788696E-1  
 1.510000000000000E8    -6.908422112464905E-1  -2.233928591012955E-1  
 1.515000000000000E8    -7.234426140785217E-1  -2.736947312951088E-2  
 1.520000000000000E8    -7.024120092391968E-1   1.654386669397354E-1  
 1.525000000000000E8    -6.309005618095398E-1   3.441114723682404E-1  
 1.530000000000000E8    -5.150135159492493E-1   4.918801486492157E-1  
 1.535000000000000E8    -3.692607283592224E-1   6.039046645164490E-1  
 1.540000000000000E8    -2.008392661809921E-1   6.779025793075562E-1  
 1.545000000000000E8    -2.093584276735783E-2   7.031067609786987E-1  
 1.550000000000000E8     1.570038199424744E-1   6.851436495780945E-1  
 1.555000000000000E8     3.240809738636017E-1   6.217974424362183E-1  
 1.560000000000000E8     4.711200594902039E-1   5.191526412963867E-1  
 1.565000000000000E8     5.853378772735596E-1   3.848269879817963E-1  
 1.570000000000000E8     6.625656485557556E-1   2.282751202583313E-1  
 1.575000000000000E8     7.004733681678772E-1   5.957965180277824E-2  
 1.580000000000000E8     6.948044300079346E-1  -1.136835440993309E-1  
 1.585000000000000E8     6.477810144424439E-1  -2.789975404739380E-1  
 1.590000000000000E8     5.651856660842896E-1  -4.271103739738464E-1  
 1.595000000000000E8     4.479577541351318E-1  -5.508158802986145E-1  
 1.600000000000000E8     3.071053326129913E-1  -6.427360773086548E-1  
 1.605000000000000E8     1.498269289731979E-1  -6.980880498886108E-1  
 1.610000000000000E8    -1.438724994659424E-2  -7.145255208015442E-1  
 1.615000000000000E8    -1.787921339273453E-1  -6.920496821403503E-1  
 1.620000000000000E8    -3.306678235530853E-1  -6.338687539100647E-1  
 1.625000000000000E8    -4.664347767829895E-1  -5.433611869812012E-1  
 1.630000000000000E8    -5.743383765220642E-1  -4.235065579414368E-1  
 1.635000000000000E8    -6.545230150222778E-1  -2.859140336513519E-1  
 1.640000000000000E8    -7.004925012588501E-1  -1.312609165906906E-1  
 1.645000000000000E8    -7.091311812400818E-1   2.736520767211914E-2  
 1.650000000000000E8    -6.838043928146362E-1   1.849726587533951E-1  
 1.655000000000000E8    -6.246474981307983E-1   3.320238590240479E-1  
 1.660000000000000E8    -5.315104722976685E-1   4.610548913478851E-1  
 1.665000000000000E8    -4.132263064384460E-1   5.649974346160889E-1  
 1.670000000000000E8    -2.735435366630554E-1   6.420400142669678E-1  
 1.675000000000000E8    -1.224680468440056E-1   6.851724386215210E-1  
 1.680000000000000E8     3.647427633404732E-2   6.933289766311646E-1  
 1.685000000000000E8     1.940298229455948E-1   6.639825701713562E-1  
 1.690000000000000E8     3.389523029327393E-1   6.025413274765015E-1  
 1.695000000000000E8     4.674863815307617E-1   5.084663033485413E-1  
 1.700000000000000E8     5.737009644508362E-1   3.859196305274963E-1  
 1.705000000000000E8     6.474691629409790E-1   2.428667694330216E-1  
 1.710000000000000E8     6.879610419273377E-1   8.781854808330536E-2  
 1.715000000000000E8     6.909334659576416E-1  -7.423437386751175E-2  
 1.720000000000000E8     6.571797132492065E-1  -2.308788746595383E-1  
 1.725000000000000E8     5.870489478111267E-1  -3.773509860038757E-1  
 1.730000000000000E8     4.873717129230499E-1  -5.032348632812500E-1  
 1.735000000000000E8     3.606105744838715E-1  -6.034605503082275E-1  
 1.740000000000000E8     2.163657546043396E-1  -6.695290803909302E-1  
 1.745000000000000E8     6.099692732095718E-2  -7.023744583129883E-1  
 1.750000000000000E8    -9.547859430313110E-2  -7.014560103416443E-1  
 1.755000000000000E8    -2.481352984905243E-1  -6.636563539505005E-1  
 1.760000000000000E8    -3.876637518405914E-1  -5.953455567359924E-1  
 1.765000000000000E8    -5.068361759185791E-1  -4.981950223445892E-1  
 1.770000000000000E8    -6.027531027793884E-1  -3.781407177448273E-1  
 1.775000000000000E8    -6.692271828651428E-1  -2.434774041175842E-1  
 1.780000000000000E8    -7.036551833152771E-1  -9.640567004680634E-2  
 1.785000000000000E8    -7.085811495780945E-1   5.378043279051781E-2  
 1.790000000000000E8    -6.812798976898193E-1   1.996447592973709E-1  
 1.795000000000000E8    -6.243603825569153E-1   3.362535536289215E-1  
 1.800000000000000E8    -5.414779782295227E-1   4.607464075088501E-1  
 1.805000000000000E8    -4.324224889278412E-1   5.626619458198547E-1  
 1.810000000000000E8    -3.061024248600006E-1   6.384192109107971E-1  
 1.815000000000000E8    -1.661791801452637E-1   6.875219345092773E-1  
 1.820000000000000E8    -1.892348565161228E-2   7.062143087387085E-1  
 1.825000000000000E8     1.292697042226791E-1   6.946266293525696E-1  
 1.830000000000000E8     2.741581797599793E-1   6.503614187240601E-1  
 1.835000000000000E8     4.062159657478333E-1   5.765972137451172E-1  
 1.840000000000000E8     5.197110772132874E-1   4.762443900108337E-1  
 1.845000000000000E8     6.094014644622803E-1   3.523548543453217E-1  
 1.850000000000000E8     6.713832020759583E-1   2.125556766986847E-1  
 1.855000000000000E8     6.999455690383911E-1   5.940797924995422E-2  
 1.860000000000000E8     6.955530643463135E-1  -9.547115117311478E-2  
 1.865000000000000E8     6.559729576110840E-1  -2.469003051519394E-1  
 1.870000000000000E8     5.854030251502991E-1  -3.854179978370667E-1  
 1.875000000000000E8     4.824555814266205E-1  -5.055956244468689E-1  
 1.880000000000000E8     3.584290444850922E-1  -5.995251536369324E-1  
 1.885000000000000E8     2.163051664829254E-1  -6.617066860198975E-1  
 1.890000000000000E8     6.410837173461914E-2  -6.931673288345337E-1  
 1.895000000000000E8    -9.063529223203659E-2  -6.880643367767334E-1  
 1.900000000000000E8    -2.394667863845825E-1  -6.504126191139221E-1  
 1.905000000000000E8    -3.755117058753967E-1  -5.817242264747620E-1  
 1.910000000000000E8    -4.927003383636475E-1  -4.847179651260376E-1  
 1.915000000000000E8    -5.845683217048645E-1  -3.651987612247467E-1  
 1.920000000000000E8    -6.488458514213562E-1  -2.290857881307602E-1  
 1.925000000000000E8    -6.814993619918823E-1  -8.486503362655640E-2  
 1.930000000000000E8    -6.832963228225708E-1   6.227260828018189E-2  
 1.935000000000000E8    -6.529256701469421E-1   2.066545486450195E-1  
 1.940000000000000E8    -5.941134095191956E-1   3.400971293449402E-1  
 1.945000000000000E8    -5.099605321884155E-1   4.565204977989197E-1  
 1.950000000000000E8    -4.003922939300537E-1   5.533593297004700E-1  
 1.955000000000000E8    -2.753631174564362E-1   6.245697140693665E-1  
 1.960000000000000E8    -1.388313621282578E-1   6.669421195983887E-1  
 1.965000000000000E8     4.972132388502359E-3   6.818818449974060E-1  
 1.970000000000000E8     1.491537839174271E-1   6.656061410903931E-1  
 1.975000000000000E8     2.872014641761780E-1   6.164936423301697E-1  
 1.980000000000000E8     4.127316176891327E-1   5.407327413558960E-1  
 1.985000000000000E8     5.185427069664002E-1   4.396998882293701E-1  
 1.990000000000000E8     5.997807383537293E-1   3.174286484718323E-1  
 1.995000000000000E8     6.545305848121643E-1   1.793677359819412E-1  
 2.000000000000000E8     6.773850321769714E-1   3.189875930547714E-2  
