#  HZ   S   RI   R     50.00 
! Rohde & Schwarz ZVA40 2Ports - Version 3.12 - 1145.1110k40 SN: 100360
! Date: 2019-07-29 16:37:11
! Measurement: S11 
! 
 1.000000000000000E8    -4.503505527973175E-1  -3.607811927795410E-1  
 1.005000000000000E8    -5.234650373458862E-1  -2.391669303178787E-1  
 1.010000000000000E8    -5.625693202018738E-1  -1.023991033434868E-1  
 1.015000000000000E8    -5.666930079460144E-1   4.100997373461723E-2  
 1.020000000000000E8    -5.390365123748779E-1   1.785921603441238E-1  
 1.025000000000000E8    -4.720183610916138E-1   3.031333088874817E-1  
 1.030000000000000E8    -3.801513910293579E-1   4.074200391769409E-1  
 1.035000000000000E8    -2.625630497932434E-1   4.829628467559815E-1  
 1.040000000000000E8    -1.318731456995010E-1   5.265315175056458E-1  
 1.045000000000000E8     2.996397437527776E-3   5.377852320671082E-1  
 1.050000000000000E8     1.384301334619522E-1   5.159715414047241E-1  
 1.055000000000000E8     2.645925879478455E-1   4.631825983524323E-1  
 1.060000000000000E8     3.738462030887604E-1   3.764994144439697E-1  
 1.065000000000000E8     4.568845927715302E-1   2.641911208629608E-1  
 1.070000000000000E8     5.109418630599976E-1   1.335655301809311E-1  
 1.075000000000000E8     5.255084037780762E-1  -6.934259552508593E-3  
 1.080000000000000E8     5.032477974891663E-1  -1.498843729496002E-1  
 1.085000000000000E8     4.462495744228363E-1  -2.810721397399902E-1  
 1.090000000000000E8     3.551695644855499E-1  -3.906434774398804E-1  
 1.095000000000000E8     2.382845431566238E-1  -4.736112952232361E-1  
 1.100000000000000E8     1.036690771579742E-1  -5.207602381706238E-1  
 1.105000000000000E8    -3.722902014851570E-2  -5.337352156639099E-1  
 1.110000000000000E8    -1.747744232416153E-1  -5.086101889610291E-1  
 1.115000000000000E8    -3.047370910644531E-1  -4.482461512088776E-1  
 1.120000000000000E8    -4.086390733718872E-1  -3.543995022773743E-1  
 1.125000000000000E8    -4.857510328292847E-1  -2.361109852790833E-1  
 1.130000000000000E8    -5.292410850524902E-1  -1.051081940531731E-1  
 1.135000000000000E8    -5.344380736351013E-1   3.073698095977306E-2  
 1.140000000000000E8    -5.063812732696533E-1   1.628248393535614E-1  
 1.145000000000000E8    -4.477468132972717E-1   2.810991108417511E-1  
 1.150000000000000E8    -3.617238998413086E-1   3.831467330455780E-1  
 1.155000000000000E8    -2.534082531929016E-1   4.611450433731079E-1  
 1.160000000000000E8    -1.256580203771591E-1   5.060934424400330E-1  
 1.165000000000000E8     1.032518595457077E-2   5.168959498405457E-1  
 1.170000000000000E8     1.448676288127899E-1   4.889159202575684E-1  
 1.175000000000000E8     2.679862380027771E-1   4.284569919109345E-1  
 1.180000000000000E8     3.675480484962463E-1   3.358419239521027E-1  
 1.185000000000000E8     4.404339790344238E-1   2.192067503929138E-1  
 1.190000000000000E8     4.787448644638062E-1   8.772572129964829E-2  
 1.195000000000000E8     4.771287739276886E-1  -5.242881178855896E-2  
 1.200000000000000E8     4.372134506702423E-1  -1.845919042825699E-1  
 1.205000000000000E8     3.609839379787445E-1  -2.985600233078003E-1  
 1.210000000000000E8     2.562006115913391E-1  -3.855492770671845E-1  
 1.215000000000000E8     1.351271867752075E-1  -4.384954869747162E-1  
 1.220000000000000E8     3.155130892992020E-3  -4.547345042228699E-1  
 1.225000000000000E8    -1.250912100076675E-1  -4.345614016056061E-1  
 1.230000000000000E8    -2.426372617483139E-1  -3.786014020442963E-1  
 1.235000000000000E8    -3.387862741947174E-1  -2.958984375000000E-1  
 1.240000000000000E8    -4.063563048839569E-1  -1.884599030017853E-1  
 1.245000000000000E8    -4.392617642879486E-1  -6.847347319126129E-2  
 1.250000000000000E8    -4.361364543437958E-1   5.580963939428330E-2  
 1.255000000000000E8    -3.988587856292725E-1   1.725423038005829E-1  
 1.260000000000000E8    -3.322586119174957E-1   2.703173160552979E-1  
 1.265000000000000E8    -2.406702637672424E-1   3.425551056861877E-1  
 1.270000000000000E8    -1.369952857494354E-1   3.870633542537689E-1  
 1.275000000000000E8    -2.339189499616623E-2   3.998558521270752E-1  
 1.280000000000000E8     8.699619770050049E-2   3.819034397602081E-1  
 1.285000000000000E8     1.861848980188370E-1   3.328018486499786E-1  
 1.290000000000000E8     2.693490982055664E-1   2.550580501556397E-1  
 1.295000000000000E8     3.241922855377197E-1   1.540866196155548E-1  
 1.300000000000000E8     3.436870276927948E-1   4.179452732205391E-2  
 1.305000000000000E8     3.258010149002075E-1  -7.170436531305313E-2  
 1.310000000000000E8     2.695401310920715E-1  -1.736920773983002E-1  
 1.315000000000000E8     1.828645616769791E-1  -2.491631358861923E-1  
 1.320000000000000E8     7.366146147251129E-2  -2.882641851902008E-1  
 1.325000000000000E8    -4.066553339362145E-2  -2.863333821296692E-1  
 1.330000000000000E8    -1.444842964410782E-1  -2.400892078876495E-1  
 1.335000000000000E8    -2.213055342435837E-1  -1.610587537288666E-1  
 1.340000000000000E8    -2.617909312248230E-1  -6.021651998162270E-2  
 1.345000000000000E8    -2.589984536170960E-1   4.490536451339722E-2  
 1.350000000000000E8    -2.170689553022385E-1   1.392825692892075E-1  
 1.355000000000000E8    -1.438168138265610E-1   2.065647244453430E-1  
 1.360000000000000E8    -5.061810836195946E-2   2.388256937265396E-1  
 1.365000000000000E8     4.184304550290108E-2   2.291984558105469E-1  
 1.370000000000000E8     1.165802255272865E-1   1.868105232715607E-1  
 1.375000000000000E8     1.693518757820129E-1   1.296684741973877E-1  
 1.380000000000000E8     2.042019516229630E-1   5.741245672106743E-2  
 1.385000000000000E8     2.153814136981964E-1  -2.839197404682636E-2  
 1.390000000000000E8     1.895942240953445E-1  -1.212132498621941E-1  
 1.395000000000000E8     1.212571188807488E-1  -2.009727358818054E-1  
 1.400000000000000E8     1.940442994236946E-2  -2.438154667615891E-1  
 1.405000000000000E8    -9.307732433080673E-2  -2.355104982852936E-1  
 1.410000000000000E8    -1.886067688465118E-1  -1.794585585594177E-1  
 1.415000000000000E8    -2.474803477525711E-1  -9.168291836977005E-2  
 1.420000000000000E8    -2.659501135349274E-1   5.903983954340220E-3  
 1.425000000000000E8    -2.480135262012482E-1   9.155587852001190E-2  
 1.430000000000000E8    -2.109021097421646E-1   1.621929407119751E-1  
 1.435000000000000E8    -1.585937887430191E-1   2.188724875450134E-1  
 1.440000000000000E8    -8.671929687261581E-2   2.552467584609985E-1  
 1.445000000000000E8    -9.791239164769650E-3   2.584280967712402E-1  
 1.450000000000000E8     4.272403940558434E-2   2.273574173450470E-1  
 1.455000000000000E8     4.603898152709007E-2   2.007408887147903E-1  
 1.460000000000000E8     3.794754669070244E-2   2.491247802972794E-1  
 1.465000000000000E8     1.401016265153885E-1   3.419417440891266E-1  
 1.470000000000000E8     3.403483033180237E-1   3.078503310680389E-1  
 1.475000000000000E8     4.736361801624298E-1   1.452621966600418E-1  
 1.480000000000000E8     5.020977854728699E-1  -5.046132579445839E-2  
 1.485000000000000E8     4.512559771537781E-1  -2.320162802934647E-1  
 1.490000000000000E8     3.411568701267242E-1  -3.732885420322418E-1  
 1.495000000000000E8     1.921774744987488E-1  -4.641998410224915E-1  
 1.500000000000000E8     2.717368490993977E-2  -4.991774857044220E-1  
 1.505000000000000E8    -1.374237984418869E-1  -4.790562093257904E-1  
 1.510000000000000E8    -2.827699780464172E-1  -4.085201621055603E-1  
 1.515000000000000E8    -3.977394700050354E-1  -3.003071844577789E-1  
 1.520000000000000E8    -4.708179235458374E-1  -1.641775369644165E-1  
 1.525000000000000E8    -4.986158013343811E-1  -1.488435361534357E-2  
 1.530000000000000E8    -4.838639795780182E-1   1.341084986925125E-1  
 1.535000000000000E8    -4.266744554042816E-1   2.669728994369507E-1  
 1.540000000000000E8    -3.359716534614563E-1   3.798033595085144E-1  
 1.545000000000000E8    -2.186922580003738E-1   4.576014280319214E-1  
 1.550000000000000E8    -8.765359222888947E-2   5.013223886489868E-1  
 1.555000000000000E8     4.973743483424187E-2   5.069485306739807E-1  
 1.560000000000000E8     1.834920793771744E-1   4.766348600387573E-1  
 1.565000000000000E8     3.006656467914581E-1   4.092294275760651E-1  
 1.570000000000000E8     3.967252671718597E-1   3.137372434139252E-1  
 1.575000000000000E8     4.634285271167755E-1   1.966522037982941E-1  
 1.580000000000000E8     4.951986968517304E-1   6.423509865999222E-2  
 1.585000000000000E8     4.893575012683868E-1  -7.010231167078018E-2  
 1.590000000000000E8     4.479626715183258E-1  -1.978715211153030E-1  
 1.595000000000000E8     3.710857033729553E-1  -3.088855147361755E-1  
 1.600000000000000E8     2.661591768264771E-1  -3.968714475631714E-1  
 1.605000000000000E8     1.416052132844925E-1  -4.495008885860443E-1  
 1.610000000000000E8     7.469916716217995E-3  -4.666005671024323E-1  
 1.615000000000000E8    -1.254835277795792E-1  -4.447868466377258E-1  
 1.620000000000000E8    -2.463665157556534E-1  -3.877072334289551E-1  
 1.625000000000000E8    -3.456160426139832E-1  -3.002331852912903E-1  
 1.630000000000000E8    -4.168017208576202E-1  -1.874464005231857E-1  
 1.635000000000000E8    -4.533609747886658E-1  -6.158785149455071E-2  
 1.640000000000000E8    -4.536649286746979E-1   6.869355589151382E-2  
 1.645000000000000E8    -4.180268049240112E-1   1.935234069824219E-1  
 1.650000000000000E8    -3.530693948268890E-1   3.014911413192749E-1  
 1.655000000000000E8    -2.604321539402008E-1   3.874883651733398E-1  
 1.660000000000000E8    -1.497414857149124E-1   4.448974132537842E-1  
 1.665000000000000E8    -2.958065271377564E-2   4.712801873683929E-1  
 1.670000000000000E8     9.484621137380600E-2   4.642269909381867E-1  
 1.675000000000000E8     2.108920216560364E-1   4.252515435218811E-1  
 1.680000000000000E8     3.129504323005676E-1   3.587860167026520E-1  
 1.685000000000000E8     3.936748802661896E-1   2.666345834732056E-1  
 1.690000000000000E8     4.465595185756683E-1   1.562677472829819E-1  
 1.695000000000000E8     4.685065150260925E-1   3.640055283904076E-2  
 1.700000000000000E8     4.583492875099182E-1  -8.539922535419464E-2  
 1.705000000000000E8     4.161750674247742E-1  -2.009565979242325E-1  
 1.710000000000000E8     3.444105982780457E-1  -3.015949428081513E-1  
 1.715000000000000E8     2.470196336507797E-1  -3.794371783733368E-1  
 1.720000000000000E8     1.318385899066925E-1  -4.274503588676453E-1  
 1.725000000000000E8     7.214501500129700E-3  -4.415190517902374E-1  
 1.730000000000000E8    -1.156076416373253E-1  -4.218836128711700E-1  
 1.735000000000000E8    -2.276908606290817E-1  -3.684330582618713E-1  
 1.740000000000000E8    -3.213955461978912E-1  -2.864266932010651E-1  
 1.745000000000000E8    -3.898616731166840E-1  -1.813433915376663E-1  
 1.750000000000000E8    -4.250949621200562E-1  -6.289503723382950E-2  
 1.755000000000000E8    -4.271514117717743E-1   5.989903211593628E-2  
 1.760000000000000E8    -3.949235081672669E-1   1.778562366962433E-1  
 1.765000000000000E8    -3.335348367691040E-1   2.825802862644196E-1  
 1.770000000000000E8    -2.463115006685257E-1   3.652212023735046E-1  
 1.775000000000000E8    -1.418921649456024E-1   4.210338890552521E-1  
 1.780000000000000E8    -2.705561742186546E-2   4.479502141475678E-1  
 1.785000000000000E8     9.040738642215729E-2   4.435908198356628E-1  
 1.790000000000000E8     2.012131512165070E-1   4.090549647808075E-1  
 1.795000000000000E8     2.985922098159790E-1   3.460887372493744E-1  
 1.800000000000000E8     3.778540492057800E-1   2.615686655044556E-1  
 1.805000000000000E8     4.311574697494507E-1   1.586733013391495E-1  
 1.810000000000000E8     4.557574689388275E-1   4.578111320734024E-2  
 1.815000000000000E8     4.514512121677399E-1  -7.024160772562027E-2  
 1.820000000000000E8     4.155304729938507E-1  -1.805156618356705E-1  
 1.825000000000000E8     3.517555296421051E-1  -2.783898711204529E-1  
 1.830000000000000E8     2.648315429687500E-1  -3.565174937248230E-1  
 1.835000000000000E8     1.589274704456329E-1  -4.075135290622711E-1  
 1.840000000000000E8     4.325557127594948E-2  -4.300215840339661E-1  
 1.845000000000000E8    -7.490117847919464E-2  -4.195473790168762E-1  
 1.850000000000000E8    -1.857832819223404E-1  -3.780645728111267E-1  
 1.855000000000000E8    -2.806563377380371E-1  -3.070271313190460E-1  
 1.860000000000000E8    -3.526885211467743E-1  -2.112499326467514E-1  
 1.865000000000000E8    -3.966415226459503E-1  -1.032990291714668E-1  
 1.870000000000000E8    -4.071075916290283E-1   1.365595310926437E-2  
 1.875000000000000E8    -3.865581154823303E-1   1.284744590520859E-1  
 1.880000000000000E8    -3.352057337760925E-1   2.316901832818985E-1  
 1.885000000000000E8    -2.599896788597107E-1   3.167806267738342E-1  
 1.890000000000000E8    -1.649805009365082E-1   3.764903247356415E-1  
 1.895000000000000E8    -5.883562192320824E-2   4.087406098842621E-1  
 1.900000000000000E8     4.987091198563576E-2   4.109072089195252E-1  
 1.905000000000000E8     1.534119844436646E-1   3.840201497077942E-1  
 1.910000000000000E8     2.440935671329498E-1   3.329626023769379E-1  
 1.915000000000000E8     3.165002167224884E-1   2.633323669433594E-1  
 1.920000000000000E8     3.678035736083984E-1   1.800920963287354E-1  
 1.925000000000000E8     3.982345759868622E-1   8.912116289138794E-2  
 1.930000000000000E8     4.071294069290161E-1  -6.981499027460814E-3  
 1.935000000000000E8     3.939385414123535E-1  -1.020188629627228E-1  
 1.940000000000000E8     3.567715287208557E-1  -1.936751008033752E-1  
 1.945000000000000E8     2.973999679088593E-1  -2.740486860275269E-1  
 1.950000000000000E8     2.172721922397614E-1  -3.374772071838379E-1  
 1.955000000000000E8     1.235624179244041E-1  -3.782766163349152E-1  
 1.960000000000000E8     2.104545570909977E-2  -3.931038081645966E-1  
 1.965000000000000E8    -8.455617725849152E-2  -3.803943693637848E-1  
 1.970000000000000E8    -1.815799027681351E-1  -3.397617936134338E-1  
 1.975000000000000E8    -2.664212584495544E-1  -2.738276124000549E-1  
 1.980000000000000E8    -3.312415778636932E-1  -1.868737488985062E-1  
 1.985000000000000E8    -3.686052858829498E-1  -8.489285409450531E-2  
 1.990000000000000E8    -3.788020610809326E-1   2.358989045023918E-2  
 1.995000000000000E8    -3.582230508327484E-1   1.318268328905106E-1  
 2.000000000000000E8    -3.081207275390625E-1   2.296749353408814E-1  
