#  HZ   S   RI   R     50.00 
! Rohde & Schwarz ZVA40 2Ports - Version 3.12 - 1145.1110k40 SN: 100360
! Date: 2019-07-29 15:19:06
! Measurement: S11 
! 
 1.000000000000000E8     2.813456952571869E-1  -7.097803354263306E-1  
 1.005000000000000E8     1.178884655237198E-1  -7.532881498336792E-1  
 1.010000000000000E8    -5.121393501758575E-2  -7.611816525459290E-1  
 1.015000000000000E8    -2.175399363040924E-1  -7.221891880035400E-1  
 1.020000000000000E8    -3.778277039527893E-1  -6.544226408004761E-1  
 1.025000000000000E8    -5.085663199424744E-1  -5.542774796485901E-1  
 1.030000000000000E8    -6.173354983329773E-1  -4.201569259166718E-1  
 1.035000000000000E8    -6.921369433403015E-1  -2.669625580310822E-1  
 1.040000000000000E8    -7.303170561790466E-1  -1.031375825405121E-1  
 1.045000000000000E8    -7.325721979141235E-1   6.758134067058563E-2  
 1.050000000000000E8    -6.918658018112183E-1   2.317093908786774E-1  
 1.055000000000000E8    -6.171020269393921E-1   3.867575228214264E-1  
 1.060000000000000E8    -5.082511901855469E-1   5.175365805625916E-1  
 1.065000000000000E8    -3.716874420642853E-1   6.185804009437561E-1  
 1.070000000000000E8    -2.182789742946625E-1   6.865442395210266E-1  
 1.075000000000000E8    -5.473576113581657E-2   7.204167842864990E-1  
 1.080000000000000E8     1.139418706297875E-1   7.127576470375061E-1  
 1.085000000000000E8     2.749145030975342E-1   6.625077128410339E-1  
 1.090000000000000E8     4.169279038906097E-1   5.863410830497742E-1  
 1.095000000000000E8     5.379375219345093E-1   4.768314063549042E-1  
 1.100000000000000E8     6.310083866119385E-1   3.423858880996704E-1  
 1.105000000000000E8     6.948577761650085E-1   1.924636662006378E-1  
 1.110000000000000E8     7.203968763351440E-1   3.190608695149422E-2  
 1.115000000000000E8     7.141583561897278E-1  -1.300562024116516E-1  
 1.120000000000000E8     6.654891371726990E-1  -2.853029370307922E-1  
 1.125000000000000E8     5.850408077239990E-1  -4.271429181098938E-1  
 1.130000000000000E8     4.764910936355591E-1  -5.455496311187744E-1  
 1.135000000000000E8     3.454265892505646E-1  -6.385347247123718E-1  
 1.140000000000000E8     1.918743103742600E-1  -6.972324252128601E-1  
 1.145000000000000E8     3.204998746514320E-2  -7.162380814552307E-1  
 1.150000000000000E8    -1.302120238542557E-1  -7.033151388168335E-1  
 1.155000000000000E8    -2.813139855861664E-1  -6.489028930664063E-1  
 1.160000000000000E8    -4.155692458152771E-1  -5.657266378402710E-1  
 1.165000000000000E8    -5.262188911437988E-1  -4.523639678955078E-1  
 1.170000000000000E8    -6.055704355239868E-1  -3.147838115692139E-1  
 1.175000000000000E8    -6.524091362953186E-1  -1.726104766130447E-1  
 1.180000000000000E8    -6.655578613281250E-1  -2.173574455082417E-2  
 1.185000000000000E8    -6.460071802139282E-1   1.282435208559036E-1  
 1.190000000000000E8    -5.928159356117249E-1   2.624090611934662E-1  
 1.195000000000000E8    -5.159029960632324E-1   3.829349875450134E-1  
 1.200000000000000E8    -4.182287454605103E-1   4.828073382377625E-1  
 1.205000000000000E8    -3.004436790943146E-1   5.622304677963257E-1  
 1.210000000000000E8    -1.668700873851776E-1   6.136921048164368E-1  
 1.215000000000000E8    -2.831044606864452E-2   6.359164118766785E-1  
 1.220000000000000E8     1.103995516896248E-1   6.264169812202454E-1  
 1.225000000000000E8     2.479266673326492E-1   5.899806618690491E-1  
 1.230000000000000E8     3.757282197475433E-1   5.237730741500855E-1  
 1.235000000000000E8     4.858216941356659E-1   4.305966496467590E-1  
 1.240000000000000E8     5.753003954887390E-1   3.127505481243134E-1  
 1.245000000000000E8     6.355003714561462E-1   1.776625961065292E-1  
 1.250000000000000E8     6.613512635231018E-1   2.886420674622059E-2  
 1.255000000000000E8     6.550807952880859E-1  -1.218096464872360E-1  
 1.260000000000000E8     6.115174889564514E-1  -2.660522758960724E-1  
 1.265000000000000E8     5.362228155136108E-1  -3.999395668506622E-1  
 1.270000000000000E8     4.312461912631989E-1  -5.084574818611145E-1  
 1.275000000000000E8     3.033849298954010E-1  -5.964100360870361E-1  
 1.280000000000000E8     1.588534116744995E-1  -6.483417153358460E-1  
 1.285000000000000E8     1.574682770296931E-3  -6.651009321212769E-1  
 1.290000000000000E8    -1.551190316677094E-1  -6.430597305297852E-1  
 1.295000000000000E8    -3.036266565322876E-1  -5.835837721824646E-1  
 1.300000000000000E8    -4.347962737083435E-1  -4.868553280830383E-1  
 1.305000000000000E8    -5.369152426719666E-1  -3.610024750232697E-1  
 1.310000000000000E8    -6.015069484710693E-1  -2.090683579444885E-1  
 1.315000000000000E8    -6.250531077384949E-1  -4.330226406455040E-2  
 1.320000000000000E8    -6.035476922988892E-1   1.202108189463615E-1  
 1.325000000000000E8    -5.372621417045593E-1   2.719532251358032E-1  
 1.330000000000000E8    -4.311415851116180E-1   3.992869257926941E-1  
 1.335000000000000E8    -2.967243492603302E-1   4.909048974514008E-1  
 1.340000000000000E8    -1.440885215997696E-1   5.399358272552490E-1  
 1.345000000000000E8     1.848041452467442E-2   5.460702776908875E-1  
 1.350000000000000E8     1.748376488685608E-1   5.002647042274475E-1  
 1.355000000000000E8     3.073635101318359E-1   4.077783524990082E-1  
 1.360000000000000E8     4.012456238269806E-1   2.770954370498657E-1  
 1.365000000000000E8     4.399231076240540E-1   1.259473711252213E-1  
 1.370000000000000E8     4.154393672943115E-1  -2.054426632821560E-2  
 1.375000000000000E8     3.416236042976379E-1  -1.353977173566818E-1  
 1.380000000000000E8     2.395716160535812E-1  -1.966035217046738E-1  
 1.385000000000000E8     1.443425714969635E-1  -2.018309384584427E-1  
 1.390000000000000E8     8.293895423412323E-2  -1.737958341836929E-1  
 1.395000000000000E8     5.828812718391419E-2  -1.424437761306763E-1  
 1.400000000000000E8     5.528439953923225E-2  -1.289383769035339E-1  
 1.405000000000000E8     5.103850737214088E-2  -1.372244060039520E-1  
 1.410000000000000E8     2.894258871674538E-2  -1.562263518571854E-1  
 1.415000000000000E8    -1.630551554262638E-2  -1.640727072954178E-1  
 1.420000000000000E8    -7.221867889165878E-2  -1.423574388027191E-1  
 1.425000000000000E8    -1.072205081582069E-1  -8.229055255651474E-2  
 1.430000000000000E8    -9.804791957139969E-2  -1.005754619836807E-2  
 1.435000000000000E8    -4.297134652733803E-2   3.791810199618340E-2  
 1.440000000000000E8     3.242534399032593E-2   3.684702515602112E-2  
 1.445000000000000E8     8.368846774101257E-2  -3.034035302698612E-2  
 1.450000000000000E8     4.650406911969185E-2  -1.339701563119888E-1  
 1.455000000000000E8    -1.184289678931236E-1  -1.500914245843887E-1  
 1.460000000000000E8    -2.430740743875504E-1   6.497896462678909E-2  
 1.465000000000000E8    -5.120618641376495E-2   3.617877364158630E-1  
 1.470000000000000E8     3.882525265216827E-1   3.285618722438812E-1  
 1.475000000000000E8     6.099933981895447E-1  -6.410136818885803E-2  
 1.480000000000000E8     4.973306655883789E-1  -4.500244855880737E-1  
 1.485000000000000E8     2.236981838941574E-1  -6.660861372947693E-1  
 1.490000000000000E8    -7.651369273662567E-2  -7.124139070510864E-1  
 1.495000000000000E8    -3.397707641124725E-1  -6.414163708686829E-1  
 1.500000000000000E8    -5.403943061828613E-1  -4.893121421337128E-1  
 1.505000000000000E8    -6.693557500839233E-1  -2.922286093235016E-1  
 1.510000000000000E8    -7.239123582839966E-1  -7.943584769964218E-2  
 1.515000000000000E8    -7.147250175476074E-1   1.327390372753143E-1  
 1.520000000000000E8    -6.452355384826660E-1   3.267242610454559E-1  
 1.525000000000000E8    -5.305014848709106E-1   4.901560246944428E-1  
 1.530000000000000E8    -3.769298791885376E-1   6.119101643562317E-1  
 1.535000000000000E8    -2.010201364755631E-1   6.876763105392456E-1  
 1.540000000000000E8    -1.507525704801083E-2   7.145434617996216E-1  
 1.545000000000000E8     1.704777777194977E-1   6.935374140739441E-1  
 1.550000000000000E8     3.429947197437286E-1   6.251397132873535E-1  
 1.555000000000000E8     4.886288046836853E-1   5.183910727500916E-1  
 1.560000000000000E8     6.051937341690064E-1   3.802447617053986E-1  
 1.565000000000000E8     6.810038089752197E-1   2.171823382377625E-1  
 1.570000000000000E8     7.162773609161377E-1   4.451889917254448E-2  
 1.575000000000000E8     7.074115276336670E-1  -1.326078921556473E-1  
 1.580000000000000E8     6.568217873573303E-1  -2.998706698417664E-1  
 1.585000000000000E8     5.682870745658875E-1  -4.481597840785980E-1  
 1.590000000000000E8     4.482617676258087E-1  -5.709625482559204E-1  
 1.595000000000000E8     3.031157851219177E-1  -6.614434123039246E-1  
 1.600000000000000E8     1.431610137224197E-1  -7.145889401435852E-1  
 1.605000000000000E8    -2.276476286351681E-2  -7.300182580947876E-1  
 1.610000000000000E8    -1.885132491588593E-1  -7.055636644363403E-1  
 1.615000000000000E8    -3.431699275970459E-1  -6.448357105255127E-1  
 1.620000000000000E8    -4.786055982112885E-1  -5.521228909492493E-1  
 1.625000000000000E8    -5.875337719917297E-1  -4.338441789150238E-1  
 1.630000000000000E8    -6.682286858558655E-1  -2.916440367698669E-1  
 1.635000000000000E8    -7.146291136741638E-1  -1.367741227149963E-1  
 1.640000000000000E8    -7.240678071975708E-1   2.363807521760464E-2  
 1.645000000000000E8    -7.001963853836060E-1   1.843074113130570E-1  
 1.650000000000000E8    -6.406778097152710E-1   3.324375748634338E-1  
 1.655000000000000E8    -5.489006638526917E-1   4.628725349903107E-1  
 1.660000000000000E8    -4.300441443920136E-1   5.734772682189941E-1  
 1.665000000000000E8    -2.921563684940338E-1   6.522219777107239E-1  
 1.670000000000000E8    -1.395368576049805E-1   6.999815702438355E-1  
 1.675000000000000E8     2.158743888139725E-2   7.095649838447571E-1  
 1.680000000000000E8     1.800047159194946E-1   6.852472424507141E-1  
 1.685000000000000E8     3.287707567214966E-1   6.271374225616455E-1  
 1.690000000000000E8     4.637102782726288E-1   5.345841050148010E-1  
 1.695000000000000E8     5.734168887138367E-1   4.161265492439270E-1  
 1.700000000000000E8     6.524137854576111E-1   2.761600315570831E-1  
 1.705000000000000E8     7.000974416732788E-1   1.188677400350571E-1  
 1.710000000000000E8     7.088051438331604E-1  -4.176333546638489E-2  
 1.715000000000000E8     6.835927367210388E-1  -2.037940621376038E-1  
 1.720000000000000E8     6.185933947563171E-1  -3.531356453895569E-1  
 1.725000000000000E8     5.261672139167786E-1  -4.850592017173767E-1  
 1.730000000000000E8     4.047613441944122E-1  -5.923369526863098E-1  
 1.735000000000000E8     2.639779746532440E-1  -6.688147783279419E-1  
 1.740000000000000E8     1.089969947934151E-1  -7.112402319908142E-1  
 1.745000000000000E8    -4.909855127334595E-2  -7.183789014816284E-1  
 1.750000000000000E8    -2.041061073541641E-1  -6.916180849075317E-1  
 1.755000000000000E8    -3.487104475498200E-1  -6.321807503700256E-1  
 1.760000000000000E8    -4.763073623180389E-1  -5.437274575233460E-1  
 1.765000000000000E8    -5.806521773338318E-1  -4.288535714149475E-1  
 1.770000000000000E8    -6.583520770072937E-1  -2.998532652854919E-1  
 1.775000000000000E8    -7.057558894157410E-1  -1.544576883316040E-1  
 1.780000000000000E8    -7.226920723915100E-1  -3.909486811608076E-3  
 1.785000000000000E8    -7.076470851898193E-1   1.444777250289917E-1  
 1.790000000000000E8    -6.612755656242371E-1   2.869069874286652E-1  
 1.795000000000000E8    -5.877215862274170E-1   4.146073758602142E-1  
 1.800000000000000E8    -4.878300130367279E-1   5.271103382110596E-1  
 1.805000000000000E8    -3.709034621715546E-1   6.167820096015930E-1  
 1.810000000000000E8    -2.344550639390945E-1   6.769931912422180E-1  
 1.815000000000000E8    -8.995737135410309E-2   7.120102047920227E-1  
 1.820000000000000E8     5.924713611602783E-2   7.129024267196655E-1  
 1.825000000000000E8     2.069465070962906E-1   6.846635341644287E-1  
 1.830000000000000E8     3.441586792469025E-1   6.260784268379211E-1  
 1.835000000000000E8     4.677151143550873E-1   5.371160507202148E-1  
 1.840000000000000E8     5.711248517036438E-1   4.255819320678711E-1  
 1.845000000000000E8     6.476629972457886E-1   2.927651703357697E-1  
 1.850000000000000E8     6.954389214515686E-1   1.479504555463791E-1  
 1.855000000000000E8     7.103407382965088E-1  -6.163043901324272E-3  
 1.860000000000000E8     6.916351318359375E-1  -1.595595329999924E-1  
 1.865000000000000E8     6.395920515060425E-1  -3.068822622299194E-1  
 1.870000000000000E8     5.566430091857910E-1  -4.381350874900818E-1  
 1.875000000000000E8     4.463549256324768E-1  -5.492071509361267E-1  
 1.880000000000000E8     3.142887055873871E-1  -6.333189606666565E-1  
 1.885000000000000E8     1.673043221235275E-1  -6.860087513923645E-1  
 1.890000000000000E8     1.257213857024908E-2  -7.050786018371582E-1  
 1.895000000000000E8    -1.410158574581146E-1  -6.899693012237549E-1  
 1.900000000000000E8    -2.878656983375549E-1  -6.425915956497192E-1  
 1.905000000000000E8    -4.184596836566925E-1  -5.653548836708069E-1  
 1.910000000000000E8    -5.303249359130859E-1  -4.595532119274139E-1  
 1.915000000000000E8    -6.154252886772156E-1  -3.369466960430145E-1  
 1.920000000000000E8    -6.748464107513428E-1  -1.949509531259537E-1  
 1.925000000000000E8    -6.987223029136658E-1  -4.615175724029541E-2  
 1.930000000000000E8    -6.941144466400147E-1   1.031484827399254E-1  
 1.935000000000000E8    -6.563683748245239E-1   2.492624223232269E-1  
 1.940000000000000E8    -5.895951390266419E-1   3.811692297458649E-1  
 1.945000000000000E8    -4.960230290889740E-1   4.964484274387360E-1  
 1.950000000000000E8    -3.792374134063721E-1   5.896071195602417E-1  
 1.955000000000000E8    -2.457942217588425E-1   6.557857990264893E-1  
 1.960000000000000E8    -1.011047661304474E-1   6.930451393127441E-1  
 1.965000000000000E8     4.675818979740143E-2   6.978834867477417E-1  
 1.970000000000000E8     1.933995634317398E-1   6.725233793258667E-1  
 1.975000000000000E8     3.315879702568054E-1   6.143072247505188E-1  
 1.980000000000000E8     4.535368084907532E-1   5.299475789070129E-1  
 1.985000000000000E8     5.572048425674439E-1   4.192081093788147E-1  
 1.990000000000000E8     6.329275369644165E-1   2.889882028102875E-1  
 1.995000000000000E8     6.799193024635315E-1   1.461729109287262E-1  
 2.000000000000000E8     6.938154101371765E-1  -4.532442893832922E-3  
