#  HZ   S   RI   R     50.00 
! Rohde & Schwarz ZVA40 2Ports - Version 3.12 - 1145.1110k40 SN: 100360
! Date: 2019-07-29 15:28:50
! Measurement: S11 
! 
 1.000000000000000E8     2.826633751392365E-1  -7.139626145362854E-1  
 1.005000000000000E8     1.186626106500626E-1  -7.552768588066101E-1  
 1.010000000000000E8    -4.965123534202576E-2  -7.642070055007935E-1  
 1.015000000000000E8    -2.195210009813309E-1  -7.282563447952271E-1  
 1.020000000000000E8    -3.741376698017120E-1  -6.589157581329346E-1  
 1.025000000000000E8    -5.106206536293030E-1  -5.525335073471069E-1  
 1.030000000000000E8    -6.178064942359924E-1  -4.231258630752564E-1  
 1.035000000000000E8    -6.929778456687927E-1  -2.731202840805054E-1  
 1.040000000000000E8    -7.349335551261902E-1  -1.050557792186737E-1  
 1.045000000000000E8    -7.321482896804810E-1   6.346490234136581E-2  
 1.050000000000000E8    -6.959998011589050E-1   2.298913151025772E-1  
 1.055000000000000E8    -6.220081448554993E-1   3.855024874210358E-1  
 1.060000000000000E8    -5.098786950111389E-1   5.157929658889771E-1  
 1.065000000000000E8    -3.764828443527222E-1   6.182217001914978E-1  
 1.070000000000000E8    -2.228773981332779E-1   6.863841414451599E-1  
 1.075000000000000E8    -5.962833017110825E-2   7.215313911437988E-1  
 1.080000000000000E8     1.071103140711784E-1   7.153283357620239E-1  
 1.085000000000000E8     2.673881351947784E-1   6.707963943481445E-1  
 1.090000000000000E8     4.135555326938629E-1   5.910789966583252E-1  
 1.095000000000000E8     5.369949936866760E-1   4.807590246200562E-1  
 1.100000000000000E8     6.329711675643921E-1   3.502419590950012E-1  
 1.105000000000000E8     6.940753459930420E-1   1.981463432312012E-1  
 1.110000000000000E8     7.234051227569580E-1   3.762150928378105E-2  
 1.115000000000000E8     7.156978845596314E-1  -1.254769861698151E-1  
 1.120000000000000E8     6.682357788085938E-1  -2.814483046531677E-1  
 1.125000000000000E8     5.889535546302795E-1  -4.250551760196686E-1  
 1.130000000000000E8     4.791133403778076E-1  -5.451461672782898E-1  
 1.135000000000000E8     3.458556234836578E-1  -6.373023986816406E-1  
 1.140000000000000E8     1.950683742761612E-1  -6.980234384536743E-1  
 1.145000000000000E8     3.552659973502159E-2  -7.179677486419678E-1  
 1.150000000000000E8    -1.284530907869339E-1  -7.039424180984497E-1  
 1.155000000000000E8    -2.778110206127167E-1  -6.519680023193359E-1  
 1.160000000000000E8    -4.155655801296234E-1  -5.666802525520325E-1  
 1.165000000000000E8    -5.223650336265564E-1  -4.508429467678070E-1  
 1.170000000000000E8    -6.040600538253784E-1  -3.172511160373688E-1  
 1.175000000000000E8    -6.531935334205627E-1  -1.720103919506073E-1  
 1.180000000000000E8    -6.653372645378113E-1  -2.609492093324661E-2  
 1.185000000000000E8    -6.419629454612732E-1   1.250346302986145E-1  
 1.190000000000000E8    -5.913773179054260E-1   2.578946948051453E-1  
 1.195000000000000E8    -5.154395103454590E-1   3.778081238269806E-1  
 1.200000000000000E8    -4.164329171180725E-1   4.763120412826538E-1  
 1.205000000000000E8    -3.031420111656189E-1   5.534659028053284E-1  
 1.210000000000000E8    -1.748708337545395E-1   6.062758564949036E-1  
 1.215000000000000E8    -3.860433772206307E-2   6.331331729888916E-1  
 1.220000000000000E8     1.008901000022888E-1   6.280373334884644E-1  
 1.225000000000000E8     2.405432015657425E-1   5.943467020988464E-1  
 1.230000000000000E8     3.675361871719360E-1   5.305801630020142E-1  
 1.235000000000000E8     4.801444709300995E-1   4.401251673698425E-1  
 1.240000000000000E8     5.719762444496155E-1   3.230395317077637E-1  
 1.245000000000000E8     6.317763924598694E-1   1.876020133495331E-1  
 1.250000000000000E8     6.631938219070435E-1   4.080815613269806E-2  
 1.255000000000000E8     6.593221426010132E-1  -1.088346913456917E-1  
 1.260000000000000E8     6.186919212341309E-1  -2.562474608421326E-1  
 1.265000000000000E8     5.468953251838684E-1  -3.909250497817993E-1  
 1.270000000000000E8     4.449892640113831E-1  -5.040810108184815E-1  
 1.275000000000000E8     3.191468119621277E-1  -5.910549163818359E-1  
 1.280000000000000E8     1.753110885620117E-1  -6.484656333923340E-1  
 1.285000000000000E8     1.933958940207958E-2  -6.700693368911743E-1  
 1.290000000000000E8    -1.371379345655441E-1  -6.524805426597595E-1  
 1.295000000000000E8    -2.880366742610931E-1  -5.997271537780762E-1  
 1.300000000000000E8    -4.220902621746063E-1  -5.059829950332642E-1  
 1.305000000000000E8    -5.308837294578552E-1  -3.847743868827820E-1  
 1.310000000000000E8    -6.053392887115479E-1  -2.328147143125534E-1  
 1.315000000000000E8    -6.379984617233276E-1  -6.999215483665466E-2  
 1.320000000000000E8    -6.247428059577942E-1   9.857530146837235E-2  
 1.325000000000000E8    -5.665528178215027E-1   2.593058943748474E-1  
 1.330000000000000E8    -4.656590223312378E-1   3.970704674720764E-1  
 1.335000000000000E8    -3.319044709205627E-1   5.006926059722900E-1  
 1.340000000000000E8    -1.718027442693710E-1   5.659692883491516E-1  
 1.345000000000000E8     9.413650841452181E-4   5.808089971542358E-1  
 1.350000000000000E8     1.706421226263046E-1   5.429990887641907E-1  
 1.355000000000000E8     3.200381398200989E-1   4.562618732452393E-1  
 1.360000000000000E8     4.338883161544800E-1   3.214755654335022E-1  
 1.365000000000000E8     4.928929209709168E-1   1.588679701089859E-1  
 1.370000000000000E8     4.899177849292755E-1  -1.184119749814272E-2  
 1.375000000000000E8     4.228256940841675E-1  -1.622091233730316E-1  
 1.380000000000000E8     3.059726357460022E-1  -2.621158957481384E-1  
 1.385000000000000E8     1.779518723487854E-1  -2.974365055561066E-1  
 1.390000000000000E8     7.052006572484970E-2  -2.766514420509338E-1  
 1.395000000000000E8     4.623420070856810E-3  -2.312020063400269E-1  
 1.400000000000000E8    -2.761157788336277E-2  -1.886702477931976E-1  
 1.405000000000000E8    -4.690907895565033E-2  -1.626919358968735E-1  
 1.410000000000000E8    -7.285571843385696E-2  -1.457823663949966E-1  
 1.415000000000000E8    -1.118312403559685E-1  -1.187679171562195E-1  
 1.420000000000000E8    -1.482946872711182E-1  -6.103018671274185E-2  
 1.425000000000000E8    -1.500650644302368E-1   2.433985471725464E-2  
 1.430000000000000E8    -9.658607095479965E-2   1.051310375332832E-1  
 1.435000000000000E8    -2.258674241602421E-3   1.426044404506683E-1  
 1.440000000000000E8     1.012159809470177E-1   1.161021143198013E-1  
 1.445000000000000E8     1.654779464006424E-1   2.629669755697250E-2  
 1.450000000000000E8     1.346684843301773E-1  -8.748786896467209E-2  
 1.455000000000000E8    -3.431160002946854E-3  -1.103660762310028E-1  
 1.460000000000000E8    -7.598830759525299E-2   8.810104429721832E-2  
 1.465000000000000E8     2.035728543996811E-1   2.740718722343445E-1  
 1.470000000000000E8     5.477173924446106E-1   2.553580142557621E-2  
 1.475000000000000E8     5.318039059638977E-1  -3.826056718826294E-1  
 1.480000000000000E8     2.913464307785034E-1  -6.391249895095825E-1  
 1.485000000000000E8    -1.124606351368129E-3  -7.246071100234985E-1  
 1.490000000000000E8    -2.679733932018280E-1  -6.835731267929077E-1  
 1.495000000000000E8    -4.799111783504486E-1  -5.615361332893372E-1  
 1.500000000000000E8    -6.302985548973084E-1  -3.857311308383942E-1  
 1.505000000000000E8    -7.122796177864075E-1  -1.847585886716843E-1  
 1.510000000000000E8    -7.318120002746582E-1   2.315826714038849E-2  
 1.515000000000000E8    -6.985746026039124E-1   2.220655083656311E-1  
 1.520000000000000E8    -6.079535484313965E-1   3.981376588344574E-1  
 1.525000000000000E8    -4.784554541110992E-1   5.435972213745117E-1  
 1.530000000000000E8    -3.196342289447784E-1   6.464078426361084E-1  
 1.535000000000000E8    -1.433277875185013E-1   7.041696310043335E-1  
 1.540000000000000E8     4.215407371520996E-2   7.163335084915161E-1  
 1.545000000000000E8     2.213356792926788E-1   6.794347167015076E-1  
 1.550000000000000E8     3.844885826110840E-1   6.015757322311401E-1  
 1.555000000000000E8     5.209975838661194E-1   4.879000186920166E-1  
 1.560000000000000E8     6.279500126838684E-1   3.442488610744476E-1  
 1.565000000000000E8     6.932034492492676E-1   1.790565699338913E-1  
 1.570000000000000E8     7.199125885963440E-1   6.193957291543484E-3  
 1.575000000000000E8     7.005402445793152E-1  -1.675628423690796E-1  
 1.580000000000000E8     6.420730948448181E-1  -3.298495411872864E-1  
 1.585000000000000E8     5.482179522514343E-1  -4.742079079151154E-1  
 1.590000000000000E8     4.230096936225891E-1  -5.898144841194153E-1  
 1.595000000000000E8     2.762958407402039E-1  -6.747881770133972E-1  
 1.600000000000000E8     1.160917431116104E-1  -7.204121947288513E-1  
 1.605000000000000E8    -5.132745206356049E-2  -7.290568351745606E-1  
 1.610000000000000E8    -2.138751596212387E-1  -6.995198726654053E-1  
 1.615000000000000E8    -3.635455667972565E-1  -6.346266269683838E-1  
 1.620000000000000E8    -4.956234693527222E-1  -5.392006635665894E-1  
 1.625000000000000E8    -6.014766693115234E-1  -4.135880172252655E-1  
 1.630000000000000E8    -6.754373908042908E-1  -2.704713940620422E-1  
 1.635000000000000E8    -7.195255756378174E-1  -1.171954199671745E-1  
 1.640000000000000E8    -7.248719334602356E-1   4.414898157119751E-2  
 1.645000000000000E8    -6.960955858230591E-1   2.019458264112473E-1  
 1.650000000000000E8    -6.331923604011536E-1   3.471105098724365E-1  
 1.655000000000000E8    -5.396526455879211E-1   4.749117791652679E-1  
 1.660000000000000E8    -4.186334908008575E-1   5.822850465774536E-1  
 1.665000000000000E8    -2.790907919406891E-1   6.597498059272766E-1  
 1.670000000000000E8    -1.267604231834412E-1   7.008320689201355E-1  
 1.675000000000000E8     3.347076848149300E-2   7.115018963813782E-1  
 1.680000000000000E8     1.917863339185715E-1   6.836658120155335E-1  
 1.685000000000000E8     3.397896587848663E-1   6.229239106178284E-1  
 1.690000000000000E8     4.730531871318817E-1   5.298822522163391E-1  
 1.695000000000000E8     5.786463618278503E-1   4.101023077964783E-1  
 1.700000000000000E8     6.580225825309753E-1   2.664915919303894E-1  
 1.705000000000000E8     7.012690305709839E-1   1.116532385349274E-1  
 1.710000000000000E8     7.102382183074951E-1  -5.069761350750923E-2  
 1.715000000000000E8     6.810653209686279E-1  -2.117037326097488E-1  
 1.720000000000000E8     6.171218752861023E-1  -3.610760569572449E-1  
 1.725000000000000E8     5.223003625869751E-1  -4.913348257541657E-1  
 1.730000000000000E8     3.985803723335266E-1  -5.966976881027222E-1  
 1.735000000000000E8     2.562064826488495E-1  -6.715865135192871E-1  
 1.740000000000000E8     1.023273542523384E-1  -7.136897444725037E-1  
 1.745000000000000E8    -5.944601818919182E-2  -7.193654179573059E-1  
 1.750000000000000E8    -2.128258794546127E-1  -6.903777122497559E-1  
 1.755000000000000E8    -3.568095564842224E-1  -6.291716098785400E-1  
 1.760000000000000E8    -4.829052090644836E-1  -5.390469431877136E-1  
 1.765000000000000E8    -5.868401527404785E-1  -4.239378273487091E-1  
 1.770000000000000E8    -6.623857021331787E-1  -2.905668020248413E-1  
 1.775000000000000E8    -7.083102464675903E-1  -1.473367214202881E-1  
 1.780000000000000E8    -7.218835949897766E-1   3.669809317216277E-3  
 1.785000000000000E8    -7.052591443061829E-1   1.523827612400055E-1  
 1.790000000000000E8    -6.568646430969238E-1   2.942901253700256E-1  
 1.795000000000000E8    -5.831290483474731E-1   4.231541752815247E-1  
 1.800000000000000E8    -4.829879403114319E-1   5.318263173103333E-1  
 1.805000000000000E8    -3.623822629451752E-1   6.204094290733337E-1  
 1.810000000000000E8    -2.283090949058533E-1   6.794919967651367E-1  
 1.815000000000000E8    -8.444724977016449E-2   7.110163569450378E-1  
 1.820000000000000E8     6.604209542274475E-2   7.119719386100769E-1  
 1.825000000000000E8     2.127963155508041E-1   6.811493635177612E-1  
 1.830000000000000E8     3.483072519302368E-1   6.225367784500122E-1  
 1.835000000000000E8     4.727437198162079E-1   5.347935557365418E-1  
 1.840000000000000E8     5.741980075836182E-1   4.213034212589264E-1  
 1.845000000000000E8     6.506416201591492E-1   2.908320426940918E-1  
 1.850000000000000E8     6.972772479057312E-1   1.448328495025635E-1  
 1.855000000000000E8     7.110549211502075E-1  -9.660956449806690E-3  
 1.860000000000000E8     6.932827234268189E-1  -1.627002954483032E-1  
 1.865000000000000E8     6.406658887863159E-1  -3.088598847389221E-1  
 1.870000000000000E8     5.550409555435181E-1  -4.400420486927033E-1  
 1.875000000000000E8     4.457405507564545E-1  -5.503712892532349E-1  
 1.880000000000000E8     3.149854838848114E-1  -6.339869499206543E-1  
 1.885000000000000E8     1.674426496028900E-1  -6.872351765632629E-1  
 1.890000000000000E8     1.245676353573799E-2  -7.066177129745483E-1  
 1.895000000000000E8    -1.414232701063156E-1  -6.897979378700256E-1  
 1.900000000000000E8    -2.886703610420227E-1  -6.416619420051575E-1  
 1.905000000000000E8    -4.195334017276764E-1  -5.654618740081787E-1  
 1.910000000000000E8    -5.310958623886108E-1  -4.594989717006683E-1  
 1.915000000000000E8    -6.190686821937561E-1  -3.344396948814392E-1  
 1.920000000000000E8    -6.755225062370300E-1  -1.950422376394272E-1  
 1.925000000000000E8    -7.009198665618897E-1  -4.416805133223534E-2  
 1.930000000000000E8    -6.937646269798279E-1   1.070809215307236E-1  
 1.935000000000000E8    -6.563745141029358E-1   2.508743107318878E-1  
 1.940000000000000E8    -5.860872864723206E-1   3.856082260608673E-1  
 1.945000000000000E8    -4.909920096397400E-1   5.003963112831116E-1  
 1.950000000000000E8    -3.732395768165588E-1   5.919051766395569E-1  
 1.955000000000000E8    -2.413036376237869E-1   6.571449637413025E-1  
 1.960000000000000E8    -9.587664902210236E-2   6.928663253784180E-1  
 1.965000000000000E8     5.415511131286621E-2   6.983908414840698E-1  
 1.970000000000000E8     1.999926269054413E-1   6.699846386909485E-1  
 1.975000000000000E8     3.385142385959625E-1   6.112396717071533E-1  
 1.980000000000000E8     4.616840779781342E-1   5.239779353141785E-1  
 1.985000000000000E8     5.597697496414185E-1   4.134384095668793E-1  
 1.990000000000000E8     6.364176869392395E-1   2.825596630573273E-1  
 1.995000000000000E8     6.818815469741821E-1   1.389031261205673E-1  
 2.000000000000000E8     6.946883797645569E-1  -1.310922019183636E-2  
