#  HZ   S   RI   R     50.00 
! Rohde & Schwarz ZVA40 2Ports - Version 3.12 - 1145.1110k40 SN: 100360
! Date: 2019-07-29 15:26:45
! Measurement: S11 
! 
 1.000000000000000E8     2.816302776336670E-1  -7.137917280197144E-1  
 1.005000000000000E8     1.181631907820702E-1  -7.556173205375671E-1  
 1.010000000000000E8    -5.378260836005211E-2  -7.630695700645447E-1  
 1.015000000000000E8    -2.230203300714493E-1  -7.306140661239624E-1  
 1.020000000000000E8    -3.763976991176605E-1  -6.578106284141541E-1  
 1.025000000000000E8    -5.118926763534546E-1  -5.540468692779541E-1  
 1.030000000000000E8    -6.170830130577087E-1  -4.194428324699402E-1  
 1.035000000000000E8    -6.931133270263672E-1  -2.697669863700867E-1  
 1.040000000000000E8    -7.318469882011414E-1  -1.021821647882462E-1  
 1.045000000000000E8    -7.333454489707947E-1   6.614365428686142E-2  
 1.050000000000000E8    -6.934280991554260E-1   2.348901927471161E-1  
 1.055000000000000E8    -6.183820366859436E-1   3.839116394519806E-1  
 1.060000000000000E8    -5.098659992218018E-1   5.143883228302002E-1  
 1.065000000000000E8    -3.755632042884827E-1   6.211885809898377E-1  
 1.070000000000000E8    -2.211859822273254E-1   6.870418190956116E-1  
 1.075000000000000E8    -5.562195181846619E-2   7.226241230964661E-1  
 1.080000000000000E8     1.121987178921700E-1   7.162784934043884E-1  
 1.085000000000000E8     2.721102535724640E-1   6.685582995414734E-1  
 1.090000000000000E8     4.161305725574493E-1   5.877918601036072E-1  
 1.095000000000000E8     5.396774411201477E-1   4.802142381668091E-1  
 1.100000000000000E8     6.317852139472961E-1   3.439036011695862E-1  
 1.105000000000000E8     6.957297325134277E-1   1.936817467212677E-1  
 1.110000000000000E8     7.234492301940918E-1   3.537621721625328E-2  
 1.115000000000000E8     7.128762602806091E-1  -1.298823505640030E-1  
 1.120000000000000E8     6.680257320404053E-1  -2.844112217426300E-1  
 1.125000000000000E8     5.877848267555237E-1  -4.262733459472656E-1  
 1.130000000000000E8     4.760792553424835E-1  -5.451574325561523E-1  
 1.135000000000000E8     3.434156775474548E-1  -6.366086006164551E-1  
 1.140000000000000E8     1.920335739850998E-1  -6.942489743232727E-1  
 1.145000000000000E8     2.972410991787911E-2  -7.175521850585938E-1  
 1.150000000000000E8    -1.276416331529617E-1  -7.021682858467102E-1  
 1.155000000000000E8    -2.820093929767609E-1  -6.488860845565796E-1  
 1.160000000000000E8    -4.170372784137726E-1  -5.639541745185852E-1  
 1.165000000000000E8    -5.229200720787048E-1  -4.504704475402832E-1  
 1.170000000000000E8    -6.054806709289551E-1  -3.158171772956848E-1  
 1.175000000000000E8    -6.494175195693970E-1  -1.730054467916489E-1  
 1.180000000000000E8    -6.623414158821106E-1  -2.201939001679421E-2  
 1.185000000000000E8    -6.410285234451294E-1   1.231931969523430E-1  
 1.190000000000000E8    -5.926814079284668E-1   2.543553411960602E-1  
 1.195000000000000E8    -5.167008638381958E-1   3.751737475395203E-1  
 1.200000000000000E8    -4.217170476913452E-1   4.774344265460968E-1  
 1.205000000000000E8    -3.059115707874298E-1   5.560747385025024E-1  
 1.210000000000000E8    -1.774050444364548E-1   6.093878746032715E-1  
 1.215000000000000E8    -3.872946277260780E-2   6.383802890777588E-1  
 1.220000000000000E8     1.046596020460129E-1   6.324675083160400E-1  
 1.225000000000000E8     2.418220490217209E-1   5.977732539176941E-1  
 1.230000000000000E8     3.741688132286072E-1   5.309613347053528E-1  
 1.235000000000000E8     4.856515228748322E-1   4.376846551895142E-1  
 1.240000000000000E8     5.757149457931519E-1   3.214963376522064E-1  
 1.245000000000000E8     6.362492442131043E-1   1.843767464160919E-1  
 1.250000000000000E8     6.671535372734070E-1   3.543035686016083E-2  
 1.255000000000000E8     6.595683693885803E-1  -1.168999969959259E-1  
 1.260000000000000E8     6.205797791481018E-1  -2.624084651470184E-1  
 1.265000000000000E8     5.443508625030518E-1  -3.948666453361511E-1  
 1.270000000000000E8     4.403289854526520E-1  -5.088698863983154E-1  
 1.275000000000000E8     3.117136061191559E-1  -5.976193547248840E-1  
 1.280000000000000E8     1.672178804874420E-1  -6.521378159523010E-1  
 1.285000000000000E8     1.053467113524675E-2  -6.709339022636414E-1  
 1.290000000000000E8    -1.477005779743195E-1  -6.530588269233704E-1  
 1.295000000000000E8    -2.985336780548096E-1  -5.956025719642639E-1  
 1.300000000000000E8    -4.325973689556122E-1  -4.982379972934723E-1  
 1.305000000000000E8    -5.373140573501587E-1  -3.712255656719208E-1  
 1.310000000000000E8    -6.080015301704407E-1  -2.207328081130981E-1  
 1.315000000000000E8    -6.348276138305664E-1  -5.458943918347359E-2  
 1.320000000000000E8    -6.158816218376160E-1   1.151993200182915E-1  
 1.325000000000000E8    -5.527763366699219E-1   2.712008655071259E-1  
 1.330000000000000E8    -4.490215778350830E-1   4.029627144336700E-1  
 1.335000000000000E8    -3.095103204250336E-1   5.005707144737244E-1  
 1.340000000000000E8    -1.506305187940598E-1   5.558260083198547E-1  
 1.345000000000000E8     1.791419833898544E-2   5.630472898483276E-1  
 1.350000000000000E8     1.796195805072784E-1   5.177025794982910E-1  
 1.355000000000000E8     3.204854428768158E-1   4.244414269924164E-1  
 1.360000000000000E8     4.209010899066925E-1   2.877851724624634E-1  
 1.365000000000000E8     4.643250107765198E-1   1.311368048191071E-1  
 1.370000000000000E8     4.456632435321808E-1  -2.671240270137787E-2  
 1.375000000000000E8     3.700784742832184E-1  -1.544898450374603E-1  
 1.380000000000000E8     2.612221240997315E-1  -2.288675755262375E-1  
 1.385000000000000E8     1.499974578619003E-1  -2.429554164409638E-1  
 1.390000000000000E8     7.021366059780121E-2  -2.145797610282898E-1  
 1.395000000000000E8     3.102896921336651E-2  -1.766043454408646E-1  
 1.400000000000000E8     1.811426132917404E-2  -1.498278230428696E-1  
 1.405000000000000E8     9.565244428813458E-3  -1.446404457092285E-1  
 1.410000000000000E8    -1.411873567849398E-2  -1.492203176021576E-1  
 1.415000000000000E8    -5.626004934310913E-2  -1.433407664299011E-1  
 1.420000000000000E8    -1.054275482892990E-1  -1.058309152722359E-1  
 1.425000000000000E8    -1.246115714311600E-1  -3.378190100193024E-2  
 1.430000000000000E8    -9.490128606557846E-2   4.191392660140991E-2  
 1.435000000000000E8    -2.236806042492390E-2   8.536557853221893E-2  
 1.440000000000000E8     6.513273715972900E-2   7.153680920600891E-2  
 1.445000000000000E8     1.222602203488350E-1  -6.743751466274262E-3  
 1.450000000000000E8     8.777552843093872E-2  -1.158202290534973E-1  
 1.455000000000000E8    -6.869153678417206E-2  -1.353791803121567E-1  
 1.460000000000000E8    -1.733382642269135E-1   7.989752292633057E-2  
 1.465000000000000E8     7.027843594551086E-2   3.397812247276306E-1  
 1.470000000000000E8     4.891965687274933E-1   1.909560412168503E-1  
 1.475000000000000E8     5.904350876808167E-1  -2.344125062227249E-1  
 1.480000000000000E8     3.965899050235748E-1  -5.631406307220459E-1  
 1.485000000000000E8     1.056718528270721E-1  -7.086628675460815E-1  
 1.490000000000000E8    -1.820318698883057E-1  -7.053675651550293E-1  
 1.495000000000000E8    -4.202212393283844E-1  -6.019059419631958E-1  
 1.500000000000000E8    -5.923830270767212E-1  -4.357345402240753E-1  
 1.505000000000000E8    -6.973479986190796E-1  -2.344882637262344E-1  
 1.510000000000000E8    -7.332064509391785E-1  -2.091795578598976E-2  
 1.515000000000000E8    -7.075462937355042E-1   1.833276301622391E-1  
 1.520000000000000E8    -6.268837451934815E-1   3.692883551120758E-1  
 1.525000000000000E8    -5.036318898200989E-1   5.195194482803345E-1  
 1.530000000000000E8    -3.486193716526032E-1   6.321655511856079E-1  
 1.535000000000000E8    -1.714881062507629E-1   6.981371045112610E-1  
 1.540000000000000E8     1.304925233125687E-2   7.172470092773438E-1  
 1.545000000000000E8     1.973173022270203E-1   6.882132887840271E-1  
 1.550000000000000E8     3.649038970470429E-1   6.139079928398132E-1  
 1.555000000000000E8     5.082802176475525E-1   5.036648511886597E-1  
 1.560000000000000E8     6.197690367698669E-1   3.615827262401581E-1  
 1.565000000000000E8     6.899500489234924E-1   1.952576786279678E-1  
 1.570000000000000E8     7.186212539672852E-1   2.352677285671234E-2  
 1.575000000000000E8     7.046313881874085E-1  -1.536977589130402E-1  
 1.580000000000000E8     6.488053202629089E-1  -3.180252313613892E-1  
 1.585000000000000E8     5.552756786346436E-1  -4.635341167449951E-1  
 1.590000000000000E8     4.320293366909027E-1  -5.825620293617249E-1  
 1.595000000000000E8     2.852749228477478E-1  -6.705813407897949E-1  
 1.600000000000000E8     1.254625171422958E-1  -7.195264697074890E-1  
 1.605000000000000E8    -4.354319721460342E-2  -7.303884029388428E-1  
 1.610000000000000E8    -2.051200270652771E-1  -7.030996084213257E-1  
 1.615000000000000E8    -3.570827245712280E-1  -6.385760307312012E-1  
 1.620000000000000E8    -4.902530014514923E-1  -5.440338253974915E-1  
 1.625000000000000E8    -5.986626148223877E-1  -4.210952818393707E-1  
 1.630000000000000E8    -6.760312914848328E-1  -2.780545055866242E-1  
 1.635000000000000E8    -7.192016243934631E-1  -1.230344474315643E-1  
 1.640000000000000E8    -7.271651625633240E-1   3.773127868771553E-2  
 1.645000000000000E8    -6.980780363082886E-1   1.952779442071915E-1  
 1.650000000000000E8    -6.367036104202271E-1   3.423235118389130E-1  
 1.655000000000000E8    -5.443317294120789E-1   4.733023047447205E-1  
 1.660000000000000E8    -4.235162138938904E-1   5.807256102561951E-1  
 1.665000000000000E8    -2.843874096870422E-1   6.568970680236816E-1  
 1.670000000000000E8    -1.300416439771652E-1   7.035968303680420E-1  
 1.675000000000000E8     2.831424213945866E-2   7.126170992851257E-1  
 1.680000000000000E8     1.864991635084152E-1   6.873888969421387E-1  
 1.685000000000000E8     3.380529880523682E-1   6.257256269454956E-1  
 1.690000000000000E8     4.691625535488129E-1   5.338537693023682E-1  
 1.695000000000000E8     5.785005092620850E-1   4.126595258712769E-1  
 1.700000000000000E8     6.563346385955811E-1   2.715968489646912E-1  
 1.705000000000000E8     7.021741271018982E-1   1.151440963149071E-1  
 1.710000000000000E8     7.105416655540466E-1  -4.698707163333893E-2  
 1.715000000000000E8     6.820206046104431E-1  -2.077020704746246E-1  
 1.720000000000000E8     6.190044879913330E-1  -3.575225174427033E-1  
 1.725000000000000E8     5.238401889801025E-1  -4.881176948547363E-1  
 1.730000000000000E8     4.026077091693878E-1  -5.947602987289429E-1  
 1.735000000000000E8     2.597789168357849E-1  -6.691449880599976E-1  
 1.740000000000000E8     1.057310476899147E-1  -7.107576131820679E-1  
 1.745000000000000E8    -5.507585033774376E-2  -7.195510864257813E-1  
 1.750000000000000E8    -2.096790075302124E-1  -6.907997131347656E-1  
 1.755000000000000E8    -3.537230789661408E-1  -6.297121047973633E-1  
 1.760000000000000E8    -4.815685153007507E-1  -5.388106107711792E-1  
 1.765000000000000E8    -5.843451023101807E-1  -4.256042540073395E-1  
 1.770000000000000E8    -6.618284583091736E-1  -2.911153137683868E-1  
 1.775000000000000E8    -7.087302207946777E-1  -1.466924995183945E-1  
 1.780000000000000E8    -7.219358682632446E-1   1.967862714082003E-3  
 1.785000000000000E8    -7.051241993904114E-1   1.522083282470703E-1  
 1.790000000000000E8    -6.572458148002625E-1   2.929153740406036E-1  
 1.795000000000000E8    -5.821181535720825E-1   4.218768477439880E-1  
 1.800000000000000E8    -4.827793240547180E-1   5.326476097106934E-1  
 1.805000000000000E8    -3.639469444751740E-1   6.193749308586121E-1  
 1.810000000000000E8    -2.293688654899597E-1   6.812701225280762E-1  
 1.815000000000000E8    -8.351664990186691E-2   7.131287455558777E-1  
 1.820000000000000E8     6.509636342525482E-2   7.137697935104370E-1  
 1.825000000000000E8     2.117247134447098E-1   6.821876764297485E-1  
 1.830000000000000E8     3.487993478775024E-1   6.239356398582459E-1  
 1.835000000000000E8     4.727217555046082E-1   5.357960462570190E-1  
 1.840000000000000E8     5.742351412773132E-1   4.237575531005859E-1  
 1.845000000000000E8     6.506524682044983E-1   2.908451855182648E-1  
 1.850000000000000E8     6.982633471488953E-1   1.458449363708496E-1  
 1.855000000000000E8     7.114495038986206E-1  -7.795612793415785E-3  
 1.860000000000000E8     6.922816634178162E-1  -1.622867882251740E-1  
 1.865000000000000E8     6.394443511962891E-1  -3.084215223789215E-1  
 1.870000000000000E8     5.564012527465820E-1  -4.408731460571289E-1  
 1.875000000000000E8     4.461390972137451E-1  -5.496642589569092E-1  
 1.880000000000000E8     3.146286606788635E-1  -6.335852146148682E-1  
 1.885000000000000E8     1.672528088092804E-1  -6.869185566902161E-1  
 1.890000000000000E8     1.381203252822161E-2  -7.057188749313355E-1  
 1.895000000000000E8    -1.406465321779251E-1  -6.904724836349487E-1  
 1.900000000000000E8    -2.863083183765411E-1  -6.429085731506348E-1  
 1.905000000000000E8    -4.180665016174316E-1  -5.636286735534668E-1  
 1.910000000000000E8    -5.307129621505737E-1  -4.601453840732575E-1  
 1.915000000000000E8    -6.167044043540955E-1  -3.363802134990692E-1  
 1.920000000000000E8    -6.724517941474915E-1  -1.945388019084930E-1  
 1.925000000000000E8    -6.986797451972961E-1  -4.656263440847397E-2  
 1.930000000000000E8    -6.943619847297669E-1   1.046846434473991E-1  
 1.935000000000000E8    -6.539735794067383E-1   2.496967315673828E-1  
 1.940000000000000E8    -5.867671370506287E-1   3.820322155952454E-1  
 1.945000000000000E8    -4.913972914218903E-1   4.986150264739990E-1  
 1.950000000000000E8    -3.744336366653442E-1   5.903760790824890E-1  
 1.955000000000000E8    -2.412041425704956E-1   6.570952534675598E-1  
 1.960000000000000E8    -9.607847779989243E-2   6.916512846946716E-1  
 1.965000000000000E8     5.261786282062531E-2   6.978791356086731E-1  
 1.970000000000000E8     1.992541402578354E-1   6.700928807258606E-1  
 1.975000000000000E8     3.365913629531860E-1   6.111585497856140E-1  
 1.980000000000000E8     4.579451978206635E-1   5.244217514991760E-1  
 1.985000000000000E8     5.594750642776489E-1   4.124808013439179E-1  
 1.990000000000000E8     6.352768540382385E-1   2.824380397796631E-1  
 1.995000000000000E8     6.801502108573914E-1   1.391720175743103E-1  
 2.000000000000000E8     6.940760016441345E-1  -1.168963871896267E-2  
