#  HZ   S   RI   R     50.00 
! Rohde & Schwarz ZVA40 2Ports - Version 3.12 - 1145.1110k40 SN: 100360
! Date: 2019-07-29 15:30:20
! Measurement: S11 
! 
 1.000000000000000E8     2.830325961112976E-1  -7.093827128410339E-1  
 1.005000000000000E8     1.209933683276177E-1  -7.535279393196106E-1  
 1.010000000000000E8    -5.181009694933891E-2  -7.578622698783875E-1  
 1.015000000000000E8    -2.167816460132599E-1  -7.268851399421692E-1  
 1.020000000000000E8    -3.741047680377960E-1  -6.576948165893555E-1  
 1.025000000000000E8    -5.073624849319458E-1  -5.552965998649597E-1  
 1.030000000000000E8    -6.155682206153870E-1  -4.242810904979706E-1  
 1.035000000000000E8    -6.876279711723328E-1  -2.696235179901123E-1  
 1.040000000000000E8    -7.285304069519043E-1  -1.070569679141045E-1  
 1.045000000000000E8    -7.351014018058777E-1   6.091402098536491E-2  
 1.050000000000000E8    -6.955543160438538E-1   2.323271632194519E-1  
 1.055000000000000E8    -6.207143664360046E-1   3.801827430725098E-1  
 1.060000000000000E8    -5.134056210517883E-1   5.149517655372620E-1  
 1.065000000000000E8    -3.803692758083344E-1   6.151916980743408E-1  
 1.070000000000000E8    -2.250171452760696E-1   6.861032247543335E-1  
 1.075000000000000E8    -6.133867055177689E-2   7.242669463157654E-1  
 1.080000000000000E8     1.042645499110222E-1   7.141749858856201E-1  
 1.085000000000000E8     2.655276954174042E-1   6.723648309707642E-1  
 1.090000000000000E8     4.129389822483063E-1   5.899842381477356E-1  
 1.095000000000000E8     5.333453416824341E-1   4.815728664398193E-1  
 1.100000000000000E8     6.302021145820618E-1   3.486505448818207E-1  
 1.105000000000000E8     6.935346126556397E-1   1.980739980936050E-1  
 1.110000000000000E8     7.216497063636780E-1   3.776559978723526E-2  
 1.115000000000000E8     7.132521271705627E-1  -1.245258599519730E-1  
 1.120000000000000E8     6.688168048858643E-1  -2.789104878902435E-1  
 1.125000000000000E8     5.869951248168945E-1  -4.236803352832794E-1  
 1.130000000000000E8     4.789495766162872E-1  -5.407086610794067E-1  
 1.135000000000000E8     3.442471027374268E-1  -6.324633359909058E-1  
 1.140000000000000E8     1.955420225858688E-1  -6.910124421119690E-1  
 1.145000000000000E8     3.747211396694183E-2  -7.137957811355591E-1  
 1.150000000000000E8    -1.239928901195526E-1  -7.000104188919067E-1  
 1.155000000000000E8    -2.774103581905365E-1  -6.475647091865540E-1  
 1.160000000000000E8    -4.087105691432953E-1  -5.602520108222961E-1  
 1.165000000000000E8    -5.189256668090820E-1  -4.490666687488556E-1  
 1.170000000000000E8    -5.939005017280579E-1  -3.142892122268677E-1  
 1.175000000000000E8    -6.396701335906982E-1  -1.756306886672974E-1  
 1.180000000000000E8    -6.547427773475647E-1  -2.838140539824963E-2  
 1.185000000000000E8    -6.341469287872315E-1   1.118666604161263E-1  
 1.190000000000000E8    -5.899087190628052E-1   2.444770932197571E-1  
 1.195000000000000E8    -5.231932997703552E-1   3.600144684314728E-1  
 1.200000000000000E8    -4.311391413211823E-1   4.643970131874085E-1  
 1.205000000000000E8    -3.176653683185577E-1   5.523357987403870E-1  
 1.210000000000000E8    -1.898198425769806E-1   6.094637513160706E-1  
 1.215000000000000E8    -4.880856722593308E-2   6.405463814735413E-1  
 1.220000000000000E8     9.711132943630219E-2   6.363250017166138E-1  
 1.225000000000000E8     2.398203015327454E-1   6.019893884658814E-1  
 1.230000000000000E8     3.687246739864349E-1   5.357630252838135E-1  
 1.235000000000000E8     4.847004115581513E-1   4.415450990200043E-1  
 1.240000000000000E8     5.727213025093079E-1   3.230378329753876E-1  
 1.245000000000000E8     6.326441168785095E-1   1.887031495571137E-1  
 1.250000000000000E8     6.635766625404358E-1   4.177651554346085E-2  
 1.255000000000000E8     6.575324535369873E-1  -1.055319160223007E-1  
 1.260000000000000E8     6.167630553245544E-1  -2.501313090324402E-1  
 1.265000000000000E8     5.473256707191467E-1  -3.819027841091156E-1  
 1.270000000000000E8     4.463973641395569E-1  -4.956769347190857E-1  
 1.275000000000000E8     3.251017630100250E-1  -5.841506123542786E-1  
 1.280000000000000E8     1.837903708219528E-1  -6.418714523315430E-1  
 1.285000000000000E8     3.085860051214695E-2  -6.650320291519165E-1  
 1.290000000000000E8    -1.219025254249573E-1  -6.545709967613220E-1  
 1.295000000000000E8    -2.715496122837067E-1  -6.041882038116455E-1  
 1.300000000000000E8    -4.090776145458221E-1  -5.177279710769653E-1  
 1.305000000000000E8    -5.199847817420960E-1  -4.004985392093658E-1  
 1.310000000000000E8    -6.000048518180847E-1  -2.585244774818420E-1  
 1.315000000000000E8    -6.424819231033325E-1  -9.424481540918350E-2  
 1.320000000000000E8    -6.377757787704468E-1   7.439263164997101E-2  
 1.325000000000000E8    -5.897528529167175E-1   2.386315315961838E-1  
 1.330000000000000E8    -4.989888668060303E-1   3.846418857574463E-1  
 1.335000000000000E8    -3.698871731758118E-1   5.034281015396118E-1  
 1.340000000000000E8    -2.122856229543686E-1   5.802682638168335E-1  
 1.345000000000000E8    -3.712212294340134E-2   6.112720370292664E-1  
 1.350000000000000E8     1.424632519483566E-1   5.907608866691589E-1  
 1.355000000000000E8     3.101428747177124E-1   5.151648521423340E-1  
 1.360000000000000E8     4.488417804241180E-1   3.903085291385651E-1  
 1.365000000000000E8     5.409876704216003E-1   2.237758338451386E-1  
 1.370000000000000E8     5.710011720657349E-1   3.251370042562485E-2  
 1.375000000000000E8     5.260028839111328E-1  -1.556447595357895E-1  
 1.380000000000000E8     4.123430848121643E-1  -3.083911240100861E-1  
 1.385000000000000E8     2.530547082424164E-1  -3.940240442752838E-1  
 1.390000000000000E8     9.125426411628723E-2  -3.989996016025543E-1  
 1.395000000000000E8    -2.942980267107487E-2  -3.432658910751343E-1  
 1.400000000000000E8    -9.707102179527283E-2  -2.733557820320129E-1  
 1.405000000000000E8    -1.345561444759369E-1  -2.191440165042877E-1  
 1.410000000000000E8    -1.765678673982620E-1  -1.753529757261276E-1  
 1.415000000000000E8    -2.259124368429184E-1  -1.127108633518219E-1  
 1.420000000000000E8    -2.593025565147400E-1  -1.223053410649300E-2  
 1.425000000000000E8    -2.409650981426239E-1   1.148868054151535E-1  
 1.430000000000000E8    -1.501318812370300E-1   2.286371737718582E-1  
 1.435000000000000E8    -5.137758795171976E-3   2.847152352333069E-1  
 1.440000000000000E8     1.553547084331513E-1   2.561171650886536E-1  
 1.445000000000000E8     2.727427780628204E-1   1.396062374114990E-1  
 1.450000000000000E8     2.870544791221619E-1  -2.304032817482948E-2  
 1.455000000000000E8     1.639707833528519E-1  -1.100656017661095E-1  
 1.460000000000000E8     9.347389638423920E-2   3.719641640782356E-2  
 1.465000000000000E8     3.848637342453003E-1   1.031282022595406E-1  
 1.470000000000000E8     5.540286302566528E-1  -2.464080750942230E-1  
 1.475000000000000E8     3.938530385494232E-1  -5.629692673683167E-1  
 1.480000000000000E8     1.256249845027924E-1  -7.072476148605347E-1  
 1.485000000000000E8    -1.407500207424164E-1  -7.165840268135071E-1  
 1.490000000000000E8    -3.709476292133331E-1  -6.350309252738953E-1  
 1.495000000000000E8    -5.477597713470459E-1  -4.932837784290314E-1  
 1.500000000000000E8    -6.652340292930603E-1  -3.142737746238709E-1  
 1.505000000000000E8    -7.230496406555176E-1  -1.159122735261917E-1  
 1.510000000000000E8    -7.252120971679688E-1   8.295655250549316E-2  
 1.515000000000000E8    -6.757020950317383E-1   2.714333534240723E-1  
 1.520000000000000E8    -5.796348452568054E-1   4.338606894016266E-1  
 1.525000000000000E8    -4.466289579868317E-1   5.651450157165527E-1  
 1.530000000000000E8    -2.870940566062927E-1   6.587010025978088E-1  
 1.535000000000000E8    -1.115839183330536E-1   7.076061964035034E-1  
 1.540000000000000E8     6.971213221549988E-2   7.108222246170044E-1  
 1.545000000000000E8     2.447811663150787E-1   6.715005636215210E-1  
 1.550000000000000E8     4.013002514839172E-1   5.885981917381287E-1  
 1.555000000000000E8     5.337644815444946E-1   4.709172844886780E-1  
 1.560000000000000E8     6.348175406455994E-1   3.251245617866516E-1  
 1.565000000000000E8     6.954211592674255E-1   1.615297049283981E-1  
 1.570000000000000E8     7.164306640625000E-1  -9.566391818225384E-3  
 1.575000000000000E8     6.948667764663696E-1  -1.823041886091232E-1  
 1.580000000000000E8     6.343541741371155E-1  -3.426496684551239E-1  
 1.585000000000000E8     5.370457768440247E-1  -4.815798401832581E-1  
 1.590000000000000E8     4.106869697570801E-1  -5.952215194702148E-1  
 1.595000000000000E8     2.631890475749970E-1  -6.769489049911499E-1  
 1.600000000000000E8     1.039929836988449E-1  -7.196654081344605E-1  
 1.605000000000000E8    -6.206209212541580E-2  -7.255820631980896E-1  
 1.610000000000000E8    -2.231780141592026E-1  -6.950529217720032E-1  
 1.615000000000000E8    -3.713473677635193E-1  -6.275093555450440E-1  
 1.620000000000000E8    -5.008177757263184E-1  -5.295711159706116E-1  
 1.625000000000000E8    -6.047930717468262E-1  -4.051475822925568E-1  
 1.630000000000000E8    -6.770472526550293E-1  -2.620399892330170E-1  
 1.635000000000000E8    -7.183465957641602E-1  -1.087517961859703E-1  
 1.640000000000000E8    -7.217103242874146E-1   5.189669877290726E-2  
 1.645000000000000E8    -6.925086379051209E-1   2.096521854400635E-1  
 1.650000000000000E8    -6.280856132507324E-1   3.520155847072601E-1  
 1.655000000000000E8    -5.343491435050964E-1   4.803744554519653E-1  
 1.660000000000000E8    -4.137996137142181E-1   5.861842036247253E-1  
 1.665000000000000E8    -2.739788293838501E-1   6.595080494880676E-1  
 1.670000000000000E8    -1.208349987864494E-1   7.031847834587097E-1  
 1.675000000000000E8     3.992433845996857E-2   7.104580998420715E-1  
 1.680000000000000E8     1.951194256544113E-1   6.816499233245850E-1  
 1.685000000000000E8     3.434599041938782E-1   6.199124455451965E-1  
 1.690000000000000E8     4.735245704650879E-1   5.276210904121399E-1  
 1.695000000000000E8     5.818047523498535E-1   4.061853885650635E-1  
 1.700000000000000E8     6.586380004882813E-1   2.638185024261475E-1  
 1.705000000000000E8     7.013488411903381E-1   1.103895530104637E-1  
 1.710000000000000E8     7.102672457695007E-1  -5.448171123862267E-2  
 1.715000000000000E8     6.797837018966675E-1  -2.136361896991730E-1  
 1.720000000000000E8     6.153536438941956E-1  -3.619382977485657E-1  
 1.725000000000000E8     5.178299546241760E-1  -4.927380084991455E-1  
 1.730000000000000E8     3.969298601150513E-1  -5.980188250541687E-1  
 1.735000000000000E8     2.544531226158142E-1  -6.741712689399719E-1  
 1.740000000000000E8     9.967913478612900E-2  -7.128768563270569E-1  
 1.745000000000000E8    -6.041787564754486E-2  -7.190747261047363E-1  
 1.750000000000000E8    -2.141827791929245E-1  -6.897908449172974E-1  
 1.755000000000000E8    -3.574422895908356E-1  -6.264030337333679E-1  
 1.760000000000000E8    -4.848788082599640E-1  -5.373994708061218E-1  
 1.765000000000000E8    -5.858905911445618E-1  -4.215408861637116E-1  
 1.770000000000000E8    -6.619006395339966E-1  -2.894980907440186E-1  
 1.775000000000000E8    -7.072429060935974E-1  -1.432285904884338E-1  
 1.780000000000000E8    -7.217519283294678E-1   5.784158129245043E-3  
 1.785000000000000E8    -7.034114003181458E-1   1.544028520584106E-1  
 1.790000000000000E8    -6.575010418891907E-1   2.964825928211212E-1  
 1.795000000000000E8    -5.793993473052979E-1   4.244670867919922E-1  
 1.800000000000000E8    -4.796241521835327E-1   5.348669290542603E-1  
 1.805000000000000E8    -3.594118654727936E-1   6.196528077125549E-1  
 1.810000000000000E8    -2.240641862154007E-1   6.792961955070496E-1  
 1.815000000000000E8    -8.045622706413269E-2   7.108550667762756E-1  
 1.820000000000000E8     6.764840334653854E-2   7.100854516029358E-1  
 1.825000000000000E8     2.148394882678986E-1   6.815170049667358E-1  
 1.830000000000000E8     3.515628576278687E-1   6.228178143501282E-1  
 1.835000000000000E8     4.752585589885712E-1   5.332309603691101E-1  
 1.840000000000000E8     5.752227306365967E-1   4.204118847846985E-1  
 1.845000000000000E8     6.503205299377441E-1   2.889818251132965E-1  
 1.850000000000000E8     6.970057487487793E-1   1.412419825792313E-1  
 1.855000000000000E8     7.106916904449463E-1  -1.156581565737724E-2  
 1.860000000000000E8     6.894474029541016E-1  -1.653988659381867E-1  
 1.865000000000000E8     6.377986669540405E-1  -3.105684518814087E-1  
 1.870000000000000E8     5.530797839164734E-1  -4.418599903583527E-1  
 1.875000000000000E8     4.420724809169769E-1  -5.521041750907898E-1  
 1.880000000000000E8     3.116340339183807E-1  -6.346418857574463E-1  
 1.885000000000000E8     1.645185053348541E-1  -6.869918107986450E-1  
 1.890000000000000E8     1.065507996827364E-2  -7.047910690307617E-1  
 1.895000000000000E8    -1.439715921878815E-1  -6.883870959281921E-1  
 1.900000000000000E8    -2.896597683429718E-1  -6.394086480140686E-1  
 1.905000000000000E8    -4.211459159851074E-1  -5.630800127983093E-1  
 1.910000000000000E8    -5.320376157760620E-1  -4.564448297023773E-1  
 1.915000000000000E8    -6.169005036354065E-1  -3.306948840618134E-1  
 1.920000000000000E8    -6.742749214172363E-1  -1.913471668958664E-1  
 1.925000000000000E8    -6.985750198364258E-1  -4.258825629949570E-2  
 1.930000000000000E8    -6.909040212631226E-1   1.070350110530853E-1  
 1.935000000000000E8    -6.510760784149170E-1   2.518421411514282E-1  
 1.940000000000000E8    -5.850978493690491E-1   3.860470056533814E-1  
 1.945000000000000E8    -4.887470602989197E-1   5.000551342964172E-1  
 1.950000000000000E8    -3.720317184925079E-1   5.914095044136047E-1  
 1.955000000000000E8    -2.380002588033676E-1   6.567800641059876E-1  
 1.960000000000000E8    -9.372565150260925E-2   6.918241381645203E-1  
 1.965000000000000E8     5.440920218825340E-2   6.958413124084473E-1  
 1.970000000000000E8     2.008916139602661E-1   6.692417263984680E-1  
 1.975000000000000E8     3.376406431198120E-1   6.090898513793945E-1  
 1.980000000000000E8     4.606758058071137E-1   5.232721567153931E-1  
 1.985000000000000E8     5.607520937919617E-1   4.123426675796509E-1  
 1.990000000000000E8     6.356205940246582E-1   2.808196246623993E-1  
 1.995000000000000E8     6.809825301170349E-1   1.380258053541184E-1  
 2.000000000000000E8     6.940343976020813E-1  -1.435122825205326E-2  
