#  HZ   S   RI   R     50.00 
! Rohde & Schwarz ZVA40 2Ports - Version 3.12 - 1145.1110k40 SN: 100360
! Date: 2019-07-29 15:29:15
! Measurement: S11 
! 
 1.000000000000000E8     2.829196751117706E-1  -7.114951014518738E-1  
 1.005000000000000E8     1.178409233689308E-1  -7.558521032333374E-1  
 1.010000000000000E8    -5.164509639143944E-2  -7.606734633445740E-1  
 1.015000000000000E8    -2.191095948219299E-1  -7.270924448966980E-1  
 1.020000000000000E8    -3.730290830135346E-1  -6.554008126258850E-1  
 1.025000000000000E8    -5.076858997344971E-1  -5.527393221855164E-1  
 1.030000000000000E8    -6.163986325263977E-1  -4.228735566139221E-1  
 1.035000000000000E8    -6.910377144813538E-1  -2.690447270870209E-1  
 1.040000000000000E8    -7.305197119712830E-1  -1.059173196554184E-1  
 1.045000000000000E8    -7.321871519088745E-1   6.180909648537636E-2  
 1.050000000000000E8    -6.947204470634460E-1   2.286368161439896E-1  
 1.055000000000000E8    -6.205756664276123E-1   3.830020427703857E-1  
 1.060000000000000E8    -5.140457153320313E-1   5.187724232673645E-1  
 1.065000000000000E8    -3.781982660293579E-1   6.162779927253723E-1  
 1.070000000000000E8    -2.226446121931076E-1   6.862403750419617E-1  
 1.075000000000000E8    -5.956420302391052E-2   7.248429059982300E-1  
 1.080000000000000E8     1.065791770815849E-1   7.136021256446838E-1  
 1.085000000000000E8     2.672750353813171E-1   6.691827178001404E-1  
 1.090000000000000E8     4.109771847724915E-1   5.897786021232605E-1  
 1.095000000000000E8     5.347114801406860E-1   4.816766083240509E-1  
 1.100000000000000E8     6.312434673309326E-1   3.503703176975250E-1  
 1.105000000000000E8     6.931420564651489E-1   1.989545077085495E-1  
 1.110000000000000E8     7.220956087112427E-1   3.979647532105446E-2  
 1.115000000000000E8     7.131421566009522E-1  -1.243219673633575E-1  
 1.120000000000000E8     6.690078377723694E-1  -2.821350097656250E-1  
 1.125000000000000E8     5.888471603393555E-1  -4.252071976661682E-1  
 1.130000000000000E8     4.789656400680542E-1  -5.410215258598328E-1  
 1.135000000000000E8     3.459627330303192E-1  -6.340409517288208E-1  
 1.140000000000000E8     1.949045807123184E-1  -6.920623779296875E-1  
 1.145000000000000E8     3.408776596188545E-2  -7.173053622245789E-1  
 1.150000000000000E8    -1.266792267560959E-1  -6.981702446937561E-1  
 1.155000000000000E8    -2.765264511108398E-1  -6.470558047294617E-1  
 1.160000000000000E8    -4.107204377651215E-1  -5.621917247772217E-1  
 1.165000000000000E8    -5.193397998809815E-1  -4.489236474037170E-1  
 1.170000000000000E8    -5.955611467361450E-1  -3.173851966857910E-1  
 1.175000000000000E8    -6.430173516273499E-1  -1.746626645326614E-1  
 1.180000000000000E8    -6.545982956886292E-1  -2.795689366757870E-2  
 1.185000000000000E8    -6.357356309890747E-1   1.145381107926369E-1  
 1.190000000000000E8    -5.897147059440613E-1   2.466634362936020E-1  
 1.195000000000000E8    -5.176849961280823E-1   3.626734018325806E-1  
 1.200000000000000E8    -4.262563884258270E-1   4.664079844951630E-1  
 1.205000000000000E8    -3.124222755432129E-1   5.507432818412781E-1  
 1.210000000000000E8    -1.867030858993530E-1   6.089223027229309E-1  
 1.215000000000000E8    -4.612380266189575E-2   6.373971104621887E-1  
 1.220000000000000E8     9.509677439928055E-2   6.355159282684326E-1  
 1.225000000000000E8     2.359198629856110E-1   6.017889976501465E-1  
 1.230000000000000E8     3.701538145542145E-1   5.364236831665039E-1  
 1.235000000000000E8     4.829679131507874E-1   4.446218311786652E-1  
 1.240000000000000E8     5.724790096282959E-1   3.257652819156647E-1  
 1.245000000000000E8     6.354462504386902E-1   1.911574006080627E-1  
 1.250000000000000E8     6.669362187385559E-1   4.342017695307732E-2  
 1.255000000000000E8     6.619269251823425E-1  -1.073290109634399E-1  
 1.260000000000000E8     6.219601631164551E-1  -2.536600232124329E-1  
 1.265000000000000E8     5.517331957817078E-1  -3.889129757881165E-1  
 1.270000000000000E8     4.489384889602661E-1  -5.031465291976929E-1  
 1.275000000000000E8     3.231837451457977E-1  -5.903299450874329E-1  
 1.280000000000000E8     1.819947361946106E-1  -6.492740511894226E-1  
 1.285000000000000E8     2.641950733959675E-2  -6.715640425682068E-1  
 1.290000000000000E8    -1.317984163761139E-1  -6.566053628921509E-1  
 1.295000000000000E8    -2.846040129661560E-1  -6.039184927940369E-1  
 1.300000000000000E8    -4.196090102195740E-1  -5.154208540916443E-1  
 1.305000000000000E8    -5.282226204872131E-1  -3.918756246566773E-1  
 1.310000000000000E8    -6.051204204559326E-1  -2.456065118312836E-1  
 1.315000000000000E8    -6.406147480010986E-1  -7.794833183288574E-2  
 1.320000000000000E8    -6.315023899078369E-1   8.867242187261581E-2  
 1.325000000000000E8    -5.776050686836243E-1   2.523794472217560E-1  
 1.330000000000000E8    -4.804174304008484E-1   3.939383029937744E-1  
 1.335000000000000E8    -3.468894362449646E-1   5.060014724731445E-1  
 1.340000000000000E8    -1.862796097993851E-1   5.733222365379334E-1  
 1.345000000000000E8    -1.502468064427376E-2   5.964532494544983E-1  
 1.350000000000000E8     1.616131216287613E-1   5.651581883430481E-1  
 1.355000000000000E8     3.208670914173126E-1   4.835788309574127E-1  
 1.360000000000000E8     4.451687633991242E-1   3.527434468269348E-1  
 1.365000000000000E8     5.193905830383301E-1   1.853883266448975E-1  
 1.370000000000000E8     5.275074839591980E-1   2.363216830417514E-3  
 1.375000000000000E8     4.688593745231628E-1  -1.630157232284546E-1  
 1.380000000000000E8     3.523404598236084E-1  -2.863263785839081E-1  
 1.385000000000000E8     2.109374105930328E-1  -3.429262042045593E-1  
 1.390000000000000E8     8.049809932708740E-2  -3.362657427787781E-1  
 1.395000000000000E8    -1.522488892078400E-2  -2.899433672428131E-1  
 1.400000000000000E8    -6.968440860509872E-2  -2.331417053937912E-1  
 1.405000000000000E8    -1.027630269527435E-1  -1.879858970642090E-1  
 1.410000000000000E8    -1.335613131523132E-1  -1.479568779468536E-1  
 1.415000000000000E8    -1.687267124652863E-1  -9.733645617961884E-2  
 1.420000000000000E8    -1.920685172080994E-1  -1.844284869730473E-2  
 1.425000000000000E8    -1.724403798580170E-1   7.962210476398468E-2  
 1.430000000000000E8    -9.768474847078323E-2   1.622626781463623E-1  
 1.435000000000000E8     1.772433891892433E-2   1.947023719549179E-1  
 1.440000000000000E8     1.361403465270996E-1   1.565977931022644E-1  
 1.445000000000000E8     2.057196646928787E-1   5.312135070562363E-2  
 1.450000000000000E8     1.785424053668976E-1  -6.766617298126221E-2  
 1.455000000000000E8     4.909366741776466E-2  -9.170992672443390E-2  
 1.460000000000000E8     1.177042815834284E-2   9.456305205821991E-2  
 1.465000000000000E8     3.146615922451019E-1   1.965790390968323E-1  
 1.470000000000000E8     5.647511482238770E-1  -1.186652034521103E-1  
 1.475000000000000E8     4.644739627838135E-1  -4.847557246685028E-1  
 1.480000000000000E8     2.046074569225311E-1  -6.790522336959839E-1  
 1.485000000000000E8    -7.680472731590271E-2  -7.238240838050842E-1  
 1.490000000000000E8    -3.233628869056702E-1  -6.605499386787415E-1  
 1.495000000000000E8    -5.168904662132263E-1  -5.267972946166992E-1  
 1.500000000000000E8    -6.493964195251465E-1  -3.477325141429901E-1  
 1.505000000000000E8    -7.203831076622009E-1  -1.491623371839523E-1  
 1.510000000000000E8    -7.313563227653503E-1   5.693954229354858E-2  
 1.515000000000000E8    -6.858112812042236E-1   2.466011345386505E-1  
 1.520000000000000E8    -5.944259166717529E-1   4.179825782775879E-1  
 1.525000000000000E8    -4.620968103408814E-1   5.535941123962402E-1  
 1.530000000000000E8    -3.019883334636688E-1   6.522583961486816E-1  
 1.535000000000000E8    -1.257580071687698E-1   7.069271802902222E-1  
 1.540000000000000E8     5.660042166709900E-2   7.128070592880249E-1  
 1.545000000000000E8     2.328859418630600E-1   6.759960055351257E-1  
 1.550000000000000E8     3.938528001308441E-1   5.933873057365418E-1  
 1.555000000000000E8     5.285297632217407E-1   4.783763587474823E-1  
 1.560000000000000E8     6.318770647048950E-1   3.341957032680512E-1  
 1.565000000000000E8     6.944696307182312E-1   1.709513217210770E-1  
 1.570000000000000E8     7.174954414367676E-1  -3.760375082492828E-3  
 1.575000000000000E8     6.973927617073059E-1  -1.771322637796402E-1  
 1.580000000000000E8     6.386050581932068E-1  -3.372962176799774E-1  
 1.585000000000000E8     5.434582233428955E-1  -4.794717133045197E-1  
 1.590000000000000E8     4.162349700927734E-1  -5.945169925689697E-1  
 1.595000000000000E8     2.704031765460968E-1  -6.762785315513611E-1  
 1.600000000000000E8     1.084974035620689E-1  -7.212256789207459E-1  
 1.605000000000000E8    -5.714806541800499E-2  -7.276719808578491E-1  
 1.610000000000000E8    -2.184049338102341E-1  -6.965740323066711E-1  
 1.615000000000000E8    -3.688358068466187E-1  -6.311755180358887E-1  
 1.620000000000000E8    -4.994429349899292E-1  -5.324358940124512E-1  
 1.625000000000000E8    -6.046376824378967E-1  -4.088377058506012E-1  
 1.630000000000000E8    -6.784298419952393E-1  -2.665103673934937E-1  
 1.635000000000000E8    -7.205434441566467E-1  -1.126993820071220E-1  
 1.640000000000000E8    -7.244533896446228E-1   4.774145036935806E-2  
 1.645000000000000E8    -6.931846141815186E-1   2.053843736648560E-1  
 1.650000000000000E8    -6.303430795669556E-1   3.519412279129028E-1  
 1.655000000000000E8    -5.364773273468018E-1   4.797039330005646E-1  
 1.660000000000000E8    -4.144740402698517E-1   5.849285125732422E-1  
 1.665000000000000E8    -2.766384482383728E-1   6.583576798439026E-1  
 1.670000000000000E8    -1.229529082775116E-1   7.028778195381165E-1  
 1.675000000000000E8     3.604308888316155E-2   7.120702862739563E-1  
 1.680000000000000E8     1.948312520980835E-1   6.824117302894592E-1  
 1.685000000000000E8     3.429305255413055E-1   6.194682121276856E-1  
 1.690000000000000E8     4.731073975563049E-1   5.280586481094360E-1  
 1.695000000000000E8     5.812081694602966E-1   4.074199795722961E-1  
 1.700000000000000E8     6.578445434570313E-1   2.665983438491821E-1  
 1.705000000000000E8     7.030344605445862E-1   1.090369895100594E-1  
 1.710000000000000E8     7.111026048660278E-1  -5.215648189187050E-2  
 1.715000000000000E8     6.800474524497986E-1  -2.127379626035690E-1  
 1.720000000000000E8     6.174213290214539E-1  -3.615757226943970E-1  
 1.725000000000000E8     5.205386877059937E-1  -4.919295907020569E-1  
 1.730000000000000E8     3.969933092594147E-1  -5.974530577659607E-1  
 1.735000000000000E8     2.555912137031555E-1  -6.729490160942078E-1  
 1.740000000000000E8     1.009159684181213E-1  -7.146182656288147E-1  
 1.745000000000000E8    -6.003005057573319E-2  -7.204262018203735E-1  
 1.750000000000000E8    -2.138370424509049E-1  -6.909909248352051E-1  
 1.755000000000000E8    -3.578596115112305E-1  -6.281634569168091E-1  
 1.760000000000000E8    -4.839160740375519E-1  -5.380724072456360E-1  
 1.765000000000000E8    -5.878331065177918E-1  -4.248461723327637E-1  
 1.770000000000000E8    -6.646677255630493E-1  -2.906355857849121E-1  
 1.775000000000000E8    -7.080380320549011E-1  -1.450223326683044E-1  
 1.780000000000000E8    -7.230425477027893E-1   6.103804334998131E-3  
 1.785000000000000E8    -7.050887942314148E-1   1.539197564125061E-1  
 1.790000000000000E8    -6.574479937553406E-1   2.970183789730072E-1  
 1.795000000000000E8    -5.818760991096497E-1   4.250309467315674E-1  
 1.800000000000000E8    -4.833490252494812E-1   5.342168211936951E-1  
 1.805000000000000E8    -3.620003759860992E-1   6.205184459686279E-1  
 1.810000000000000E8    -2.245496809482575E-1   6.810736656188965E-1  
 1.815000000000000E8    -7.993376255035400E-2   7.110483646392822E-1  
 1.820000000000000E8     6.721441447734833E-2   7.121253609657288E-1  
 1.825000000000000E8     2.132564634084702E-1   6.817427873611450E-1  
 1.830000000000000E8     3.510770201683044E-1   6.225914359092712E-1  
 1.835000000000000E8     4.754244685173035E-1   5.329958200454712E-1  
 1.840000000000000E8     5.743765234947205E-1   4.207529127597809E-1  
 1.845000000000000E8     6.522036790847778E-1   2.887165248394013E-1  
 1.850000000000000E8     6.975869536399841E-1   1.426700800657272E-1  
 1.855000000000000E8     7.108500003814697E-1  -1.082618441432715E-2  
 1.860000000000000E8     6.909779906272888E-1  -1.639006584882736E-1  
 1.865000000000000E8     6.383697986602783E-1  -3.100937008857727E-1  
 1.870000000000000E8     5.538218021392822E-1  -4.410741031169891E-1  
 1.875000000000000E8     4.445495307445526E-1  -5.523082017898560E-1  
 1.880000000000000E8     3.122054338455200E-1  -6.354544758796692E-1  
 1.885000000000000E8     1.664264351129532E-1  -6.863094568252564E-1  
 1.890000000000000E8     1.189531665295363E-2  -7.061508893966675E-1  
 1.895000000000000E8    -1.426677107810974E-1  -6.905995607376099E-1  
 1.900000000000000E8    -2.873834371566773E-1  -6.420723795890808E-1  
 1.905000000000000E8    -4.210945665836334E-1  -5.641937255859375E-1  
 1.910000000000000E8    -5.322808623313904E-1  -4.587883353233337E-1  
 1.915000000000000E8    -6.173909306526184E-1  -3.336809575557709E-1  
 1.920000000000000E8    -6.740828156471252E-1  -1.939777880907059E-1  
 1.925000000000000E8    -6.992449760437012E-1  -4.431800171732903E-2  
 1.930000000000000E8    -6.937652230262756E-1   1.061936467885971E-1  
 1.935000000000000E8    -6.559267044067383E-1   2.510951459407806E-1  
 1.940000000000000E8    -5.864488482475281E-1   3.851721286773682E-1  
 1.945000000000000E8    -4.913230836391449E-1   4.996296167373657E-1  
 1.950000000000000E8    -3.744109570980072E-1   5.918070077896118E-1  
 1.955000000000000E8    -2.396405190229416E-1   6.582258939743042E-1  
 1.960000000000000E8    -9.563027322292328E-2   6.936185956001282E-1  
 1.965000000000000E8     5.333168804645538E-2   6.960394978523254E-1  
 1.970000000000000E8     2.003640830516815E-1   6.694964766502380E-1  
 1.975000000000000E8     3.380283117294312E-1   6.102099418640137E-1  
 1.980000000000000E8     4.596902132034302E-1   5.243866443634033E-1  
 1.985000000000000E8     5.616807341575623E-1   4.117187857627869E-1  
 1.990000000000000E8     6.355977058410645E-1   2.819178700447083E-1  
 1.995000000000000E8     6.815230846405029E-1   1.383498907089233E-1  
 2.000000000000000E8     6.923783421516419E-1  -1.388688106089830E-2  
