# MHz S RI R 50
! S-Parameters data
! Freq   reS11   imS11   reS12   imS12   reS13   imS13
!        reS21   imS21   reS22   imS22   reS23   imS23
!        reS31   imS31   reS32   imS32   reS33   imS33
!     
1.0000000000                    -0.1983058347           0.3988745581          -0.5668691851          -0.2818621444           0.5668691851           0.2818621444
                                -0.5668691851          -0.2818621444          -0.0991729533           0.1994901446           0.0991729691          -0.1993644809
                                 0.5668691851           0.2818621444           0.0991729691          -0.1993644809          -0.0991729533           0.1994901446
2.0000000000                    -0.0582214991           0.2344635269          -0.6659212251          -0.1654311874           0.6659212251           0.1654311874
                                -0.6659212251          -0.1654311874          -0.0291342642           0.1173515777           0.0291343274          -0.1171002503
                                 0.6659212251           0.1654311874           0.0291343274          -0.1171002503          -0.0291342642           0.1173515777
3.0000000000                    -0.0267279032           0.1617398943          -0.6881898919          -0.1138313907           0.6881898919           0.1138313907
                                -0.6881898919          -0.1138313907          -0.0133882141           0.0810544177           0.0133883563          -0.0806774267
                                 0.6881898919           0.1138313907           0.0133883563          -0.0806774267          -0.0133882141           0.0810544177
4.0000000000                    -0.0152015513           0.1229580625          -0.6963398934          -0.0862314716           0.6963398934           0.0862314716
                                -0.6963398934          -0.0862314716          -0.0076252711           0.0617273096           0.0076255238          -0.0612246549
                                 0.6963398934           0.0862314716           0.0076255238          -0.0612246549          -0.0076252711           0.0617273096
5.0000000000                    -0.0097734715           0.0991325886          -0.7001778285          -0.0692070302           0.7001778285           0.0692070302
                                -0.7001778285          -0.0692070302          -0.0049112959           0.0498780064           0.0049116906          -0.0492496881
                                 0.7001778285           0.0692070302           0.0049116906          -0.0492496881          -0.0049112959           0.0498780064
6.0000000000                    -0.0067996338           0.0830873734          -0.7022803511          -0.0576839249           0.7022803511           0.0576839249
                                -0.7022803511          -0.0576839249          -0.0034243645           0.0419186379           0.0034249330          -0.0411646561
                                 0.7022803511           0.0576839249           0.0034249330          -0.0411646561          -0.0034243645           0.0419186379
7.0000000000                    -0.0049977562           0.0715791323          -0.7035541488          -0.0493688647           0.7035541488           0.0493688647
                                -0.7035541488          -0.0493688647          -0.0025233681           0.0362276431           0.0025241419          -0.0353479979
                                 0.7035541488           0.0493688647           0.0025241419          -0.0353479979          -0.0025233681           0.0362276431
8.0000000000                    -0.0038246625           0.0629402708          -0.7043832956          -0.0430827117           0.7043832956           0.0430827117
                                -0.7043832956          -0.0430827117          -0.0019367321           0.0319712663           0.0019377428          -0.0309659577
                                 0.7043832956           0.0430827117           0.0019377428          -0.0309659577          -0.0019367321           0.0319712663
9.0000000000                    -0.0030186884           0.0562287898          -0.7049528115          -0.0381593887           0.7049528115           0.0381593887
                                -0.7049528115          -0.0381593887          -0.0015336310           0.0286785316           0.0015349101          -0.0275475597
                                 0.7049528115           0.0381593887           0.0015349101          -0.0275475597          -0.0015336310           0.0286785316
10.0000000000                   -0.0024412718           0.0508733670          -0.7053606722          -0.0341949197           0.7053606722           0.0341949197
                                -0.7053606722          -0.0341949197          -0.0012447871           0.0260637920           0.0012463662          -0.0248071569
                                 0.7053606722           0.0341949197           0.0012463662          -0.0248071569          -0.0012447871           0.0260637920
11.0000000000                   -0.0020135090           0.0465077361          -0.7056626696          -0.0309303219           0.7056626696           0.0309303219
                                -0.7056626696          -0.0309303219          -0.0010307506           0.0239439234           0.0010326613          -0.0225616253
                                 0.7056626696           0.0309303219           0.0010326613          -0.0225616253          -0.0010307506           0.0239439234
12.0000000000                   -0.0016878040           0.0428864218          -0.7058924585          -0.0281920225           0.7058924585           0.0281920225
                                -0.7058924585          -0.0281920225          -0.0008677246           0.0221961946           0.0008699985          -0.0206882335
                                 0.7058924585           0.0281920225           0.0008699985          -0.0206882335          -0.0008677246           0.0221961946
13.0000000000                   -0.0014340700           0.0398388098          -0.7060713128          -0.0258593819           0.7060713128           0.0258593819
                                -0.7060713128          -0.0258593819          -0.0007406665           0.0207353024           0.0007433352          -0.0191016786
                                 0.7060713128           0.0258593819           0.0007433352          -0.0191016786          -0.0007406665           0.0207353024
14.0000000000                   -0.0012325352           0.0372426663          -0.7062132129          -0.0238459700           0.7062132129           0.0238459700
                                -0.7062132129          -0.0238459700          -0.0006396909           0.0195001332           0.0006427860          -0.0177408468
                                 0.7062132129           0.0238459700           0.0006427860          -0.0177408468          -0.0006396909           0.0195001332
15.0000000000                   -0.0010697742           0.0350081428          -0.7063276518          -0.0220882559           0.7063276518           0.0220882559
                                -0.7063276518          -0.0220882559          -0.0005580855           0.0184457648           0.0005616386          -0.0165608159
                                 0.7063276518           0.0220882559           0.0005616386          -0.0165608159          -0.0005580855           0.0184457648
16.0000000000                   -0.0009364122           0.0330677268          -0.7064212583          -0.0205385023           0.7064212583           0.0205385023
                                -0.7064212583          -0.0205385023          -0.0004911631           0.0175384428           0.0004952057          -0.0155278316
                                 0.7064212583           0.0205385023           0.0004952057          -0.0155278316          -0.0004911631           0.0175384428
17.0000000000                   -0.0008257429           0.0313697133          -0.7064987745          -0.0191601491           0.7064987745           0.0191601491
                                -0.7064987745          -0.0191601491          -0.0004355706           0.0167523158           0.0004401343          -0.0146160425
                                 0.7064987745           0.0191601491           0.0004401343          -0.0146160425          -0.0004355706           0.0167523158
18.0000000000                   -0.0007328663           0.0298738371          -0.7065636649          -0.0179247253           0.7065636649           0.0179247253
                                -0.7065636649          -0.0179247253          -0.0003888582           0.0160672523           0.0003939746          -0.0138053172
                                 0.7065636649           0.0179247253           0.0003939746          -0.0138053172          -0.0003888582           0.0160672523
19.0000000000                   -0.0006541349           0.0285482774          -0.7066185088          -0.0168097307           0.7066185088           0.0168097307
                                -0.7066185088          -0.0168097307          -0.0003492024           0.0154673427           0.0003549030          -0.0130797459
                                 0.7066185088           0.0168097307           0.0003549030          -0.0130797459          -0.0003492024           0.0154673427
20.0000000000                   -0.0005867887           0.0273675551          -0.7066652577          -0.0157971494           0.7066652577           0.0157971494
                                -0.7066652577          -0.0157971494          -0.0003152230           0.0149398481           0.0003215395          -0.0124265899
                                 0.7066652577           0.0157971494           0.0003215395          -0.0124265899          -0.0003152230           0.0149398481
21.0000000000                   -0.0005287077           0.0263110295          -0.7067054105          -0.0148723865           0.7067054105           0.0148723865
                                -0.7067054105          -0.0148723865          -0.0002858602           0.0144744486           0.0002928241          -0.0118355291
                                 0.7067054105           0.0148723865           0.0002928241          -0.0118355291          -0.0002858602           0.0144744486
22.0000000000                   -0.0004782423           0.0253618018          -0.7067401338          -0.0140234932           0.7067401338           0.0140234932
                                -0.7067401338          -0.0140234932          -0.0002602892           0.0140626953           0.0002679321          -0.0112981149
                                 0.7067401338           0.0140234932           0.0002679321          -0.0112981149          -0.0002602892           0.0140626953
23.0000000000                   -0.0004340928           0.0245059048          -0.7067703466          -0.0132405933           0.7067703466           0.0132405933
                                -0.7067703466          -0.0132405933          -0.0002378602           0.0136976048           0.0002462138          -0.0108073637
                                 0.7067703466           0.0132405933           0.0002462138          -0.0108073637          -0.0002378602           0.0136976048
24.0000000000                   -0.0003952245           0.0237316935          -0.7067967803          -0.0125154529           0.7067967803           0.0125154529
                                -0.7067967803          -0.0125154529          -0.0002180559           0.0133733550           0.0002271517          -0.0103574534
                                 0.7067967803           0.0125154529           0.0002271517          -0.0103574534          -0.0002180559           0.0133733550
25.0000000000                   -0.0003608052           0.0230293821          -0.7068200236          -0.0118411526           0.7068200236           0.0118411526
                                -0.7068200236          -0.0118411526          -0.0002004602           0.0130850532           0.0002103297          -0.0099434915
                                 0.7068200236           0.0118411526           0.0002103297          -0.0099434915          -0.0002004602           0.0130850532
26.0000000000                   -0.0003301595           0.0223906873          -0.7068405540          -0.0112118353           0.7068405540           0.0112118353
                                -0.7068405540          -0.0112118353          -0.0001847354           0.0128285580           0.0001954103          -0.0095613365
                                 0.7068405540           0.0112118353           0.0001954103          -0.0095613365          -0.0001847354           0.0128285580
27.0000000000                   -0.0003027345           0.0218085509          -0.7068587624          -0.0106225103           0.7068587624           0.0106225103
                                -0.7068587624          -0.0106225103          -0.0001706051           0.0126003403           0.0001821169          -0.0092074593
                                 0.7068587624           0.0106225103           0.0001821169          -0.0092074593          -0.0001706051           0.0126003403
28.0000000000                   -0.0002780742           0.0212769210          -0.7068749712          -0.0100688983           0.7068749712           0.0100688983
                                -0.7068749712          -0.0100688983          -0.0001578413           0.0123973746           0.0001702216          -0.0088788344
                                 0.7068749712           0.0100688983           0.0001702216          -0.0088788344          -0.0001578413           0.0123973746
29.0000000000                   -0.0002558000           0.0207905792          -0.7068894483          -0.0095473095           0.7068894483           0.0095473095
                                -0.7068894483          -0.0095473095          -0.0001462546           0.0122170516           0.0001595350          -0.0085728525
                                 0.7068894483           0.0095473095           0.0001595350          -0.0085728525          -0.0001462546           0.0122170516
30.0000000000                   -0.0002355949           0.0203450020          -0.7069024175          -0.0090545454           0.7069024175           0.0090545454
                                -0.7069024175          -0.0090545454          -0.0001356867           0.0120571096           0.0001498988          -0.0082872520
                                 0.7069024175           0.0090545454           0.0001498988          -0.0082872520          -0.0001356867           0.0120571096
31.0000000000                   -0.0002171926           0.0199362486          -0.7069140675          -0.0085878195           0.7069140675           0.0085878195
                                -0.7069140675          -0.0085878195          -0.0001260043           0.0119155785           0.0001411796          -0.0080200628
                                 0.7069140675           0.0085878195           0.0001411796          -0.0080200628          -0.0001260043           0.0119155785
32.0000000000                   -0.0002003674           0.0195608703          -0.7069245576          -0.0081446933           0.7069245576           0.0081446933
                                -0.7069245576          -0.0081446933          -0.0001170947           0.0117907340           0.0001332648          -0.0077695604
                                 0.7069245576           0.0081446933           0.0001332648          -0.0077695604          -0.0001170947           0.0117907340
33.0000000000                   -0.0001849274           0.0192158358          -0.7069340235          -0.0077230234           0.7069340235           0.0077230234
                                -0.7069340235          -0.0077230234          -0.0001088618           0.0116810603           0.0001260583          -0.0075342293
                                 0.7069340235           0.0077230234           0.0001260583          -0.0075342293          -0.0001088618           0.0116810603
34.0000000000                   -0.0001707084           0.0188984700          -0.7069425815          -0.0073209183           0.7069425815           0.0073209183
                                -0.7069425815          -0.0073209183          -0.0001012236           0.0115852202           0.0001194781          -0.0073127321
                                 0.7069425815           0.0073209183           0.0001194781          -0.0073127321          -0.0001012236           0.0115852202
35.0000000000                   -0.0001575694           0.0186064034          -0.7069503311          -0.0069367025           0.7069503311           0.0069367025
                                -0.7069503311          -0.0069367025          -0.0000941097           0.0115020287           0.0001134537          -0.0071038841
                                 0.7069503311           0.0069367025           0.0001134537          -0.0071038841          -0.0000941097           0.0115020287
36.0000000000                   -0.0001453888           0.0183375293          -0.7069573585          -0.0065688865           0.7069573585           0.0065688865
                                -0.7069573585          -0.0065688865          -0.0000874590           0.0114304328           0.0001079242          -0.0069066319
                                 0.7069573585           0.0065688865           0.0001079242          -0.0069066319          -0.0000874590           0.0114304328
37.0000000000                   -0.0001340608           0.0180899685          -0.7069637382          -0.0062161416           0.7069637382           0.0062161416
                                -0.7069637382          -0.0062161416          -0.0000812189           0.0113694928           0.0001028368          -0.0067200361
                                 0.7069637382           0.0062161416           0.0001028368          -0.0067200361          -0.0000812189           0.0113694928
38.0000000000                   -0.0001234939           0.0178620397          -0.7069695352          -0.0058772788           0.7069695352           0.0058772788
                                -0.7069695352          -0.0058772788          -0.0000753435           0.0113183680           0.0000981457          -0.0065432560
                                 0.7069695352           0.0058772788           0.0000981457          -0.0065432560          -0.0000753435           0.0113183680
39.0000000000                   -0.0001136076           0.0176522336          -0.7069748063          -0.0055512310           0.7069748063           0.0055512310
                                -0.7069748063          -0.0055512310          -0.0000697926           0.0112763039           0.0000938107          -0.0063755371
                                 0.7069748063           0.0055512310           0.0000938107          -0.0063755371          -0.0000697926           0.0112763039
40.0000000000                   -0.0001043317           0.0174591918          -0.7069796011          -0.0052370378           0.7069796011           0.0052370378
                                -0.7069796011          -0.0052370378          -0.0000645311           0.0112426214           0.0000897966          -0.0062162001
                                 0.7069796011           0.0052370378           0.0000897966          -0.0062162001          -0.0000645311           0.0112426214
41.0000000000                   -0.0000956044           0.0172816885          -0.7069839633          -0.0049338323           0.7069839633           0.0049338323
                                -0.7069839633          -0.0049338323          -0.0000595281           0.0112167074           0.0000860727          -0.0060646322
