# MHz S RI R 50
! S-Parameters data
! Freq   reS11   imS11   reS12   imS12   reS13   imS13   reS14   imS14
!        reS21   imS21   reS22   imS22   reS23   imS23   reS24   imS24
!        reS31   imS31   reS32   imS32   reS33   imS33   reS34   imS34
!        reS41   imS41   reS42   imS42   reS43   imS43   reS44   imS44
!     
1.0000000000                    -0.0010978162           0.0398658297          -0.0001147402           0.0012432619           0.0313152243           0.0024976124           0.9979218325           0.0396621541
                                -0.0001147402           0.0012432619          -0.0020695880           0.0397488104           0.9979218192           0.0396623203          -0.0315140137          -0.0000007493
                                 0.0313152243           0.0024976124           0.9979218192           0.0396623202          -0.0010978295           0.0398659958          -0.0001147397           0.0012432567
                                 0.9979218325           0.0396621541          -0.0315140137          -0.0000007493          -0.0001147397           0.0012432567          -0.0020695748           0.0397486444
2.0000000000                     0.0000924583           0.0200496816          -0.0000403357           0.0006215991           0.0314270805           0.0012524455           0.9991085697           0.0197597982
                                -0.0000403357           0.0006215991          -0.0008851624           0.0199914943           0.9991085564           0.0197601317          -0.0314769476           0.0000077445
                                 0.0314270805           0.0012524455           0.9991085564           0.0197601317           0.0000924449           0.0200500151          -0.0000403352           0.0006215886
                                 0.9991085697           0.0197597982          -0.0314769476           0.0000077445          -0.0000403352           0.0006215886          -0.0008851492           0.0199911611
3.0000000000                     0.0003132097           0.0134727315          -0.0000265194           0.0004121683           0.0314478437           0.0008360733           0.9993286294           0.0130706286
                                -0.0000265194           0.0004121683          -0.0006654971           0.0134344594           0.9993286161           0.0130711292          -0.0314700525           0.0000127239
                                 0.0314478437           0.0008360733           0.9993286161           0.0130711292           0.0003131962           0.0134732322          -0.0000265187           0.0004121525
                                 0.9993286294           0.0130706286          -0.0314700525           0.0000127239          -0.0000265187           0.0004121526          -0.0006654840           0.0134339593
4.0000000000                     0.0003905166           0.0102138265          -0.0000216823           0.0003065669           0.0314551148           0.0006279306           0.9994056527           0.0096929687
                                -0.0000216823           0.0003065669          -0.0005885707           0.0101856836           0.9994056394           0.0096936364          -0.0314676350           0.0000173377
                                 0.0314551148           0.0006279306           0.9994056394           0.0096936363           0.0003905030           0.0102144941          -0.0000216812           0.0003065459
                                 0.9994056527           0.0096929687          -0.0314676350           0.0000173377          -0.0000216812           0.0003065459          -0.0005885578           0.0101850166
5.0000000000                     0.0004263255           0.0082829535          -0.0000194444           0.0002425735           0.0314584815           0.0005031816           0.9994412848           0.0076407235
                                -0.0000194444           0.0002425735          -0.0005529381           0.0082610200           0.9994412715           0.0076415582          -0.0314665132           0.0000218560
                                 0.0314584815           0.0005031816           0.9994412715           0.0076415582           0.0004263118           0.0082837882          -0.0000194430           0.0002425472
                                 0.9994412848           0.0076407235          -0.0314665132           0.0000218560          -0.0000194430           0.0002425472          -0.0005529254           0.0082601861
6.0000000000                     0.0004458026           0.0070162640          -0.0000182302           0.0001993997           0.0314603110           0.0004201504           0.9994606176           0.0062513525
                                -0.0000182302           0.0001993997          -0.0005335571           0.0069985787           0.9994606043           0.0062523542          -0.0314659013           0.0000263369
                                 0.0314603110           0.0004201504           0.9994606043           0.0062523542           0.0004457886           0.0070172656          -0.0000182284           0.0001993682
                                 0.9994606176           0.0062513525          -0.0314659013           0.0000263369          -0.0000182284           0.0001993682          -0.0005335446           0.0069975780
7.0000000000                     0.0004575723           0.0061291571          -0.0000174998           0.0001681276           0.0314614147           0.0003609641           0.9994722500           0.0052408158
                                -0.0000174998           0.0001681276          -0.0005218455           0.0061145990           0.9994722367           0.0052419844          -0.0314655297           0.0000307996
                                 0.0314614147           0.0003609641           0.9994722367           0.0052419844           0.0004575580           0.0061303257          -0.0000174975           0.0001680908
                                 0.9994722500           0.0052408158          -0.0314655297           0.0000307996          -0.0000174975           0.0001680908          -0.0005218334           0.0061134316
8.0000000000                     0.0004652374           0.0054793073          -0.0000170275           0.0001442956           0.0314621316           0.0003166831           0.9994797741           0.0044670683
                                -0.0000170275           0.0001442956          -0.0005142184           0.0054671758           0.9994797609           0.0044684039          -0.0314652858           0.0000352520
                                 0.0314621316           0.0003166831           0.9994797609           0.0044684039           0.0004652229           0.0054806429          -0.0000170245           0.0001442536
                                 0.9994797741           0.0044670683          -0.0314652858           0.0000352520          -0.0000170245           0.0001442536          -0.0005142065           0.0054658415
9.0000000000                     0.0004705193           0.0049876366          -0.0000167054           0.0001254244           0.0314626237           0.0002823399           0.9994849064           0.0038511880
                                -0.0000167054           0.0001254244          -0.0005089628           0.0049774643           0.9994848931           0.0038526906          -0.0314651158           0.0000396981
                                 0.0314626237           0.0002823399           0.9994848931           0.0038526906           0.0004705044           0.0049891392          -0.0000167018           0.0001253772
                                 0.9994849064           0.0038511880          -0.0314651158           0.0000396981          -0.0000167018           0.0001253772          -0.0005089513           0.0049759632
10.0000000000                    0.0004743246           0.0046066948          -0.0000164769           0.0001100262           0.0314629763           0.0002549537           0.9994885505           0.0033458184
                                -0.0000164769           0.0001100262          -0.0005051766           0.0045981547           0.9994885372           0.0033474879          -0.0314649914           0.0000441398
                                 0.0314629763           0.0002549537           0.9994885372           0.0033474879           0.0004743093           0.0046083643          -0.0000164725           0.0001099737
                                 0.9994885505           0.0033458184          -0.0314649914           0.0000441398          -0.0000164725           0.0001099737          -0.0005051656           0.0045964868
11.0000000000                    0.0004771675           0.0043062850          -0.0000163096           0.0000971539           0.0314632378           0.0002326272           0.9994912195           0.0029208219
                                -0.0000163096           0.0000971539          -0.0005023480           0.0042991393           0.9994912062           0.0029226585          -0.0314648965           0.0000485787
                                 0.0314632378           0.0002326272           0.9994912062           0.0029226585           0.0004771519           0.0043081215          -0.0000163044           0.0000970961
                                 0.9994912195           0.0029208219          -0.0314648965           0.0000485787          -0.0000163044           0.0000970961          -0.0005023374           0.0042973045
12.0000000000                    0.0004793577           0.0040662752          -0.0000161843           0.0000861762           0.0314634373           0.0002140958           0.9994932219           0.0025561065
                                -0.0000161843           0.0000861762          -0.0005001690           0.0040603454           0.9994932086           0.0025581100          -0.0314648214           0.0000530153
                                 0.0314634373           0.0002140958           0.9994932086           0.0025581100           0.0004793416           0.0040682787          -0.0000161782           0.0000861131
                                 0.9994932219           0.0025561065          -0.0314648214           0.0000530153          -0.0000161782           0.0000861131          -0.0005001589           0.0040583439
13.0000000000                    0.0004810904           0.0038727275          -0.0000160887           0.0000766558           0.0314635931           0.0001984837           0.9994947522           0.0022377615
                                -0.0000160887           0.0000766558          -0.0004984453           0.0038678764           0.9994947390           0.0022399320          -0.0314647601           0.0000574503
                                 0.0314635931           0.0001984837           0.9994947390           0.0022399320           0.0004810738           0.0038748980          -0.0000160816           0.0000765875
                                 0.9994947522           0.0022377615          -0.0314647601           0.0000574503          -0.0000160816           0.0000765875          -0.0004984358           0.0038657081
14.0000000000                    0.0004824936           0.0037156862          -0.0000160147           0.0000682806           0.0314637174           0.0001851653           0.9994959384           0.0019558510
                                -0.0000160147           0.0000682806          -0.0004970495           0.0037118060           0.9994959251           0.0019581884          -0.0314647085           0.0000618841
                                 0.0314637174           0.0001851653           0.9994959251           0.0019581884           0.0004824765           0.0037180237          -0.0000160066           0.0000682071
                                 0.9994959384           0.0019558510          -0.0314647085           0.0000618841          -0.0000160066           0.0000682071          -0.0004970406           0.0037094708
15.0000000000                    0.0004836542           0.0035878502          -0.0000159569           0.0000608215           0.0314638183           0.0001736821           0.9994968669           0.0017030882
                                -0.0000159569           0.0000608215          -0.0004958950           0.0035848545           0.9994968536           0.0017055926          -0.0314646639           0.0000663168
                                 0.0314638183           0.0001736821           0.9994968536           0.0017055926           0.0004836366           0.0035903546          -0.0000159477           0.0000607427
                                 0.9994968669           0.0017030882          -0.0314646639           0.0000663168          -0.0000159477           0.0000607427          -0.0004958868           0.0035823526
16.0000000000                    0.0004846330           0.0034837437          -0.0000159116           0.0000541068           0.0314639015           0.0001636898           0.9994975982           0.0014740081
                                -0.0000159116           0.0000541068          -0.0004949217           0.0034815624           0.9994975850           0.0014766795          -0.0314646245           0.0000707488
                                 0.0314639015           0.0001636898           0.9994975850           0.0014766795           0.0004846147           0.0034864150          -0.0000159011           0.0000540228
                                 0.9994975982           0.0014740081          -0.0314646245           0.0000707488          -0.0000159011           0.0000540228          -0.0004949141           0.0034788937
17.0000000000                    0.0004854731           0.0033991791          -0.0000158760           0.0000480051           0.0314639710           0.0001549254           0.9994981756           0.0012644315
                                -0.0000158760           0.0000480051          -0.0004940863           0.0033977546           0.9994981624           0.0012672699          -0.0314645887           0.0000751801
                                 0.0314639710           0.0001549254           0.9994981624           0.0012672699           0.0004854541           0.0034020174          -0.0000158642           0.0000479158
                                 0.9994981756           0.0012644315          -0.0314645887           0.0000751801          -0.0000158642           0.0000479158          -0.0004940795           0.0033949191
18.0000000000                    0.0004862062           0.0033308996          -0.0000158481           0.0000424143           0.0314640300           0.0001471842           0.9994986306           0.0010711079
                                -0.0000158481           0.0000424143          -0.0004933574           0.0033301837           0.9994986174           0.0010741132          -0.0314645558           0.0000796109
                                 0.0314640300           0.0001471842           0.9994986174           0.0010741132           0.0004861866           0.0033339049          -0.0000158350           0.0000423198
                                 0.9994986306           0.0010711079          -0.0314645558           0.0000796109          -0.0000158350           0.0000423198          -0.0004933513           0.0033271814
19.0000000000                    0.0004868559           0.0032763339          -0.0000158265           0.0000372537           0.0314640804           0.0001403048           0.9994989866           0.0008914711
                                -0.0000158265           0.0000372537          -0.0004927115           0.0032762861           0.9994989734           0.0008946434          -0.0314645249           0.0000840412
                                 0.0314640804           0.0001403048           0.9994989734           0.0008946434           0.0004868356           0.0032795062          -0.0000158119           0.0000371539
                                 0.9994989866           0.0008914711          -0.0314645249           0.0000840412          -0.0000158119           0.0000371539          -0.0004927063           0.0032731170
20.0000000000                    0.0004874400           0.0032334249          -0.0000158100           0.0000324587           0.0314641242           0.0001341578           0.9994992614           0.0007234681
                                -0.0000158100           0.0000324587          -0.0004921310           0.0032340108           0.9994992482           0.0007268074          -0.0314644955           0.0000884712
                                 0.0314641242           0.0001341578           0.9994992482           0.0007268074           0.0004874189           0.0032367641          -0.0000157939           0.0000323537
                                 0.9994992614           0.0007234681          -0.0314644955           0.0000884712          -0.0000157939           0.0000323537          -0.0004921266           0.0032306749
21.0000000000                    0.0004879721           0.0032005075          -0.0000157979           0.0000279772           0.0314641625           0.0001286386           0.9994994686           0.0005654370
                                -0.0000157979           0.0000279772          -0.0004916022           0.0032016975           0.9994994554           0.0005689432          -0.0314644671           0.0000929008
                                 0.0314641625           0.0001286386           0.9994994554           0.0005689432           0.0004879502           0.0032040136          -0.0000157801           0.0000278669
                                 0.9994994686           0.0005654370          -0.0314644671           0.0000929008          -0.0000157801           0.0000278669          -0.0004915987           0.0031981948
22.0000000000                    0.0004884629           0.0031762191          -0.0000157893           0.0000237664           0.0314641963           0.0001236616           0.9994996189           0.0004160180
                                -0.0000157893           0.0000237664          -0.0004911145           0.0031779878           0.9994996057           0.0004196911          -0.0314644394           0.0000973301
                                 0.0314641963           0.0001236616           0.9994996057           0.0004196911           0.0004884402           0.0031798922          -0.0000157698           0.0000236508
                                 0.9994996189           0.0004160180          -0.0314644394           0.0000973301          -0.0000157698           0.0000236508          -0.0004911121           0.0031743182
23.0000000000                    0.0004889208           0.0031594342          -0.0000157838           0.0000197910           0.0314642264           0.0001191561           0.9994997206           0.0002740877
                                -0.0000157838           0.0000197910          -0.0004906597           0.0031617594           0.9994997074           0.0002779279          -0.0314644123           0.0001017592
                                 0.0314642264           0.0001191561           0.9994997074           0.0002779279           0.0004888972           0.0031632743          -0.0000157626           0.0000196702
                                 0.9994997206           0.0002740877          -0.0314644123           0.0001017592          -0.0000157626           0.0000196702          -0.0004906582           0.0031579230
24.0000000000                    0.0004893524           0.0031492149          -0.0000157810           0.0000160215           0.0314642535           0.0001150631           0.9994997803           0.0001387102
                                -0.0000157810           0.0000160216          -0.0004902310           0.0031520772           0.9994997671           0.0001427173          -0.0314643853           0.0001061881
                                 0.0314642535           0.0001150631           0.9994997671           0.0001427173           0.0004893279           0.0031532219          -0.0000157579           0.0000158955
