# MHz S RI R 50 
! S-Parameters data 
! Freq   reS11   imS11   reS21   imS21   reS12   imS12   reS22   imS22 
873.5000000000         0.8175964355           0.5392150879           0.0017032623           -0.0025709867          0.0017503500           -0.0024839640          0.7751770020           0.6004638672           
873.5312500000         0.8186645508           0.5374145508           0.0017187595           -0.0025997162          0.0017626286           -0.0025103092          0.7763977051           0.5988159180           
873.5625000000         0.8198242188           0.5356445313           0.0017313957           -0.0026342869          0.0017760992           -0.0025361776          0.7776184082           0.5972595215           
873.5937500000         0.8210144043           0.5339355469           0.0017386675           -0.0026648045          0.0017880201           -0.0025695562          0.7788696289           0.5958557129           
873.6250000000         0.8220214844           0.5321350098           0.0017509460           -0.0026977062          0.0018039942           -0.0026004314          0.7800292969           0.5940856934           
873.6562500000         0.8232727051           0.5303955078           0.0017671585           -0.0027287006          0.0018174648           -0.0026278496          0.7810974121           0.5925598145           
873.6875000000         0.8241882324           0.5285949707           0.0017741919           -0.0027590990          0.0018265247           -0.0026626587          0.7823181152           0.5911865234           
873.7187500000         0.8253784180           0.5269470215           0.0017943382           -0.0027914047          0.0018422604           -0.0026926994          0.7835083008           0.5894165039           
873.7500000000         0.8264465332           0.5251159668           0.0018011332           -0.0028237104          0.0018500090           -0.0027233362          0.7847290039           0.5879211426           
873.7812500000         0.8276672363           0.5232849121           0.0018190145           -0.0028557777          0.0018702745           -0.0027527809          0.7858276367           0.5862426758           
873.8125000000         0.8287658691           0.5214233398           0.0018342733           -0.0028902292          0.0018811226           -0.0027916431          0.7871093750           0.5847473145           
873.8437500000         0.8298950195           0.5197143555           0.0018420219           -0.0029240847          0.0018988848           -0.0028239489          0.7882995605           0.5830993652           
873.8750000000         0.8309326172           0.5177917480           0.0018566847           -0.0029598475          0.0019098520           -0.0028597116          0.7893371582           0.5814514160           
873.9062500000         0.8321228027           0.5160522461           0.0018732548           -0.0029970407          0.0019232035           -0.0028973818          0.7905883789           0.5798034668           
873.9375000000         0.8331909180           0.5140686035           0.0018779039           -0.0030257702          0.0019364357           -0.0029278994          0.7917480469           0.5782775879           
873.9687500000         0.8343505859           0.5122375488           0.0018951893           -0.0030667782          0.0019593239           -0.0029634237          0.7931518555           0.5766906738           
874.0000000000         0.8354492188           0.5104064941           0.0018988848           -0.0031058788          0.0019710064           -0.0030049086          0.7942504883           0.5749206543           
874.0312500000         0.8365783691           0.5086364746           0.0019189119           -0.0031448603          0.0019810200           -0.0030374527          0.7955322266           0.5733032227           
874.0625000000         0.8376770020           0.5067138672           0.0019342899           -0.0031862259          0.0019963980           -0.0030781031          0.7968444824           0.5716247559           
874.0937500000         0.8388366699           0.5048217773           0.0019415617           -0.0032250881          0.0020091534           -0.0031144619          0.7979736328           0.5700378418           
874.1250000000         0.8400573730           0.5030212402           0.0019594431           -0.0032632351          0.0020245314           -0.0031498671          0.7992248535           0.5683288574           
874.1562500000         0.8410949707           0.5010681152           0.0019695759           -0.0033028126          0.0020399094           -0.0031918287          0.8002624512           0.5665283203           
874.1875000000         0.8422241211           0.4989624023           0.0019812584           -0.0033439398          0.0020545721           -0.0032271147          0.8014526367           0.5647583008           
874.2187500000         0.8433532715           0.4971923828           0.0019967556           -0.0033845901          0.0020685196           -0.0032682419          0.8027038574           0.5630493164           
874.2500000000         0.8444213867           0.4952087402           0.0020116568           -0.0034204721          0.0020818710           -0.0033037663          0.8038940430           0.5613403320           
874.2812500000         0.8456420898           0.4933471680           0.0020233393           -0.0034632683          0.0021008253           -0.0033470392          0.8050231934           0.5595703125           
874.3125000000         0.8466796875           0.4913635254           0.0020325184           -0.0035008192          0.0021119118           -0.0033919811          0.8062438965           0.5578308105           
874.3437500000         0.8478698730           0.4894104004           0.0020387173           -0.0035452843          0.0021264553           -0.0034269094          0.8074340820           0.5560607910           
874.3750000000         0.8489990234           0.4873962402           0.0020592213           -0.0035870075          0.0021369457           -0.0034669638          0.8087158203           0.5543212891           
874.4062500000         0.8500671387           0.4852905273           0.0020782948           -0.0036255121          0.0021567345           -0.0035103559          0.8099365234           0.5523681641           
874.4375000000         0.8511657715           0.4834594727           0.0020927191           -0.0036691427          0.0021693707           -0.0035498142          0.8112182617           0.5506286621           
874.4687500000         0.8524169922           0.4814453125           0.0021067858           -0.0037134886          0.0021823645           -0.0035971403          0.8122863770           0.5491027832           
874.5000000000         0.8534240723           0.4794616699           0.0021109581           -0.0037624836          0.0022029877           -0.0036414862          0.8134460449           0.5472717285           
874.5312500000         0.8544921875           0.4773864746           0.0021330118           -0.0038099289          0.0022181273           -0.0036847591          0.8147583008           0.5452880859           
874.5625000000         0.8557434082           0.4753723145           0.0021445751           -0.0038486719          0.0022326708           -0.0037358999          0.8158569336           0.5434875488           
874.5937500000         0.8568115234           0.4732666016           0.0021581650           -0.0039020777          0.0022522211           -0.0037841797          0.8171081543           0.5417175293           
874.6250000000         0.8577880859           0.4710388184           0.0021824837           -0.0039472580          0.0022602081           -0.0038230419          0.8182067871           0.5397644043           
874.6562500000         0.8588256836           0.4691162109           0.0021884441           -0.0039939880          0.0022789240           -0.0038707256          0.8195190430           0.5380249023           
874.6875000000         0.8601684570           0.4669494629           0.0022039413           -0.0040473938          0.0022952557           -0.0039246082          0.8206176758           0.5361938477           
874.7187500000         0.8612976074           0.4649963379           0.0022208691           -0.0040884018          0.0023059845           -0.0039694309          0.8219604492           0.5343933105           
874.7500000000         0.8623657227           0.4628906250           0.0022311211           -0.0041475296          0.0023300648           -0.0040159225          0.8231506348           0.5323791504           
874.7812500000         0.8634643555           0.4607543945           0.0022473335           -0.0041956902          0.0023474693           -0.0040779114          0.8243713379           0.5305175781           
874.8125000000         0.8645629883           0.4588317871           0.0022652149           -0.0042469501          0.0023620129           -0.0041182041          0.8255310059           0.5286865234           
874.8437500000         0.8656616211           0.4563903809           0.0022771358           -0.0043036938          0.0023791790           -0.0041713715          0.8267517090           0.5267944336           
874.8750000000         0.8668212891           0.4544982910           0.0022926331           -0.0043609142          0.0023972988           -0.0042276382          0.8279113770           0.5246582031           
874.9062500000         0.8679809570           0.4522705078           0.0023093224           -0.0044136047          0.0024158955           -0.0042841434          0.8292236328           0.5229797363           
874.9375000000         0.8690185547           0.4500122070           0.0023195744           -0.0044662952          0.0024306774           -0.0043406487          0.8304138184           0.5209960938           
874.9687500000         0.8702087402           0.4479370117           0.0023353100           -0.0045201778          0.0024449825           -0.0043954849          0.8316345215           0.5191040039           
875.0000000000         0.8712463379           0.4457092285           0.0023493767           -0.0045812130          0.0024645329           -0.0044517517          0.8329772949           0.5170593262           
875.0312500000         0.8724060059           0.4434509277           0.0023605824           -0.0046372414          0.0024750233           -0.0045094490          0.8342285156           0.5152893066           
875.0625000000         0.8734436035           0.4412231445           0.0023751259           -0.0046961308          0.0024986267           -0.0045652390          0.8354187012           0.5132141113           
875.0937500000         0.8745117188           0.4391784668           0.0023915768           -0.0047585964          0.0025141239           -0.0046193600          0.8366088867           0.5112609863           
875.1250000000         0.8755798340           0.4368591309           0.0024044514           -0.0048136711          0.0025303364           -0.0046870708          0.8379211426           0.5091552734           
875.1562500000         0.8767700195           0.4346008301           0.0024182796           -0.0048756599          0.0025472641           -0.0047445297          0.8391113281           0.5072326660           
875.1875000000         0.8778686523           0.4323730469           0.0024359226           -0.0049400330          0.0025599003           -0.0048022270          0.8401489258           0.5053100586           
875.2187500000         0.8790283203           0.4301757813           0.0024466515           -0.0050017834          0.0025813580           -0.0048644543          0.8412475586           0.5031433105           
875.2500000000         0.8800048828           0.4278564453           0.0024683475           -0.0050652027          0.0025961399           -0.0049276352          0.8425903320           0.5011596680           
875.2812500000         0.8811340332           0.4255981445           0.0024785995           -0.0051269531          0.0026118755           -0.0049915314          0.8438720703           0.4991149902           
875.3125000000         0.8821716309           0.4233093262           0.0024907589           -0.0051898956          0.0026292801           -0.0050559044          0.8451232910           0.4970397949           
875.3437500000         0.8832702637           0.4208374023           0.0025093555           -0.0052576065          0.0026483536           -0.0051190853          0.8462829590           0.4949035645           
875.3750000000         0.8841247559           0.4185791016           0.0025229454           -0.0053219795          0.0026631355           -0.0051856041          0.8475036621           0.4928894043           
875.4062500000         0.8854064941           0.4160766602           0.0025401115           -0.0053877831          0.0026721954           -0.0052502155          0.8485412598           0.4907531738           
875.4375000000         0.8864440918           0.4138793945           0.0025537014           -0.0054590702          0.0026903152           -0.0053212643          0.8499450684           0.4885864258           
875.4687500000         0.8875732422           0.4114685059           0.0025613308           -0.0055272579          0.0027089119           -0.0053865910          0.8511047363           0.4864501953           
875.5000000000         0.8885803223           0.4091796875           0.0025842190           -0.0055983067          0.0027251244           -0.0054607391          0.8523254395           0.4844970703           
875.5312500000         0.8897399902           0.4067382813           0.0025928020           -0.0056693554          0.0027456284           -0.0055258274          0.8535156250           0.4822998047           
875.5625000000         0.8906860352           0.4042968750           0.0026080608           -0.0057430267          0.0027608871           -0.0055987835          0.8545532227           0.4800109863           
875.5937500000         0.8919372559           0.4019165039           0.0026235580           -0.0058155060          0.0027737617           -0.0056705475          0.8560180664           0.4778747559           
875.6250000000         0.8928527832           0.3994140625           0.0026357174           -0.0058920383          0.0027928352           -0.0057439804          0.8571777344           0.4755859375           
875.6562500000         0.8941040039           0.3970031738           0.0026533604           -0.0059642792          0.0028147697           -0.0058214664          0.8583068848           0.4735107422           
875.6875000000         0.8950500488           0.3946228027           0.0026700497           -0.0060462952          0.0028245449           -0.0058951378          0.8595581055           0.4711914063           
875.7187500000         0.8960571289           0.3921813965           0.0026819706           -0.0061178207          0.0028474331           -0.0059740543          0.8607177734           0.4691467285           
875.7500000000         0.8971557617           0.3896484375           0.0027000904           -0.0062034130          0.0028624535           -0.0060489178          0.8618774414           0.4667663574           
875.7812500000         0.8982238770           0.3871765137           0.0027117729           -0.0062808990          0.0028805733           -0.0061309338          0.8632202148           0.4645996094           
875.8125000000         0.8992919922           0.3845825195           0.0027253628           -0.0063643456          0.0029003620           -0.0062088966          0.8643798828           0.4622802734           
875.8437500000         0.9003906250           0.3821105957           0.0027427673           -0.0064473152          0.0029156208           -0.0062882900          0.8656005859           0.4598999023           
875.8750000000         0.9014892578           0.3795776367           0.0027506351           -0.0065274239          0.0029306412           -0.0063681602          0.8666992188           0.4576721191           
875.9062500000         0.9023437500           0.3768920898           0.0027689934           -0.0066118240          0.0029451847           -0.0064499378          0.8678588867           0.4554138184           
875.9375000000         0.9036254883           0.3745422363           0.0027821064           -0.0066981316          0.0029685497           -0.0065369606          0.8691711426           0.4531250000           
875.9687500000         0.9043579102           0.3720092773           0.0027930737           -0.0067913532          0.0029816628           -0.0066258907          0.8703918457           0.4506225586           
876.0000000000         0.9054870605           0.3692932129           0.0028088093           -0.0068743229          0.0029978752           -0.0067124367          0.8714294434           0.4484558105           
876.0312500000         0.9065856934           0.3667602539           0.0028204918           -0.0069665909          0.0030162334           -0.0067999363          0.8726806641           0.4461364746           
876.0625000000         0.9075927734           0.3640441895           0.0028390884           -0.0070524216          0.0030324459           -0.0068857670          0.8738708496           0.4437561035           
876.0937500000         0.9085083008           0.3614807129           0.0028448105           -0.0071504116          0.0030484200           -0.0069842339          0.8749694824           0.4414062500           
876.1250000000         0.9094543457           0.3587951660           0.0028584003           -0.0072469711          0.0030624866           -0.0070772171          0.8761901855           0.4389648438           
876.1562500000         0.9105529785           0.3562316895           0.0028676987           -0.0073387623          0.0030815601           -0.0071704388          0.8773803711           0.4366455078           
876.1875000000         0.9115295410           0.3534851074           0.0028867722           -0.0074355602          0.0030949116           -0.0072669983          0.8784790039           0.4341125488           
876.2187500000         0.9125671387           0.3508300781           0.0028965473           -0.0075368881          0.0031120777           -0.0073585510          0.8797607422           0.4316406250           
876.2500000000         0.9136047363           0.3480834961           0.0029125214           -0.0076401234          0.0031342506           -0.0074620247          0.8809509277           0.4293212891           
876.2812500000         0.9146118164           0.3453063965           0.0029275417           -0.0077421665          0.0031507015           -0.0075638294          0.8820800781           0.4267883301           
876.3125000000         0.9155578613           0.3425598145           0.0029339790           -0.0078454018          0.0031626225           -0.0076706409          0.8832702637           0.4242248535           
876.3437500000         0.9165344238           0.3398132324           0.0029487610           -0.0079522133          0.0031816959           -0.0077745914          0.8844299316           0.4216918945           
876.3750000000         0.9175720215           0.3371582031           0.0029582977           -0.0080585480          0.0031943321           -0.0078778267          0.8856811523           0.4192810059           
876.4062500000         0.9184875488           0.3342895508           0.0029664040           -0.0081706047          0.0032143593           -0.0079770088          0.8868408203           0.4168090820           
876.4375000000         0.9195861816           0.3314514160           0.0029807091           -0.0082721710          0.0032243729           -0.0080938339          0.8878784180           0.4142150879           
