# MHz S RI R 50 
! S-Parameters data 
! Freq   reS11   imS11  
16.1000000000          0.1060943604           -0.4049224854          
16.1200000000          0.0690917969           -0.4035644531          
16.1400000000          0.0353698730           -0.3995208740          
16.1600000000          0.0021362305           -0.3940429688          
16.1800000000          -0.0290985107          -0.3866119385          
16.2000000000          -0.0596008301          -0.3771057129          
16.2200000000          -0.0880126953          -0.3669738770          
16.2400000000          -0.1163635254          -0.3544616699          
16.2600000000          -0.1428375244          -0.3410034180          
16.2800000000          -0.1692199707          -0.3258514404          
16.3000000000          -0.1943511963          -0.3088684082          
16.3200000000          -0.2195281982          -0.2915191650          
16.3400000000          -0.2407989502          -0.2711181641          
16.3600000000          -0.2615203857          -0.2492675781          
16.3800000000          -0.2817077637          -0.2262725830          
16.4000000000          -0.2984161377          -0.2023010254          
16.4200000000          -0.3130493164          -0.1778259277          
16.4400000000          -0.3270416260          -0.1534271240          
16.4600000000          -0.3388061523          -0.1265563965          
16.4800000000          -0.3484191895          -0.0998840332          
16.5000000000          -0.3555755615          -0.0731964111          
16.5200000000          -0.3616638184          -0.0460052490          
16.5400000000          -0.3639526367          -0.0183715820          
16.5600000000          -0.3659210205          0.0078735352           
16.5800000000          -0.3661041260          0.0349731445           
16.6000000000          -0.3637237549          0.0605773926           
16.6200000000          -0.3602905273          0.0871124268           
16.6400000000          -0.3547515869          0.1121978760           
16.6600000000          -0.3474121094          0.1363677979           
16.6800000000          -0.3397674561          0.1588439941           
16.7000000000          -0.3290252686          0.1809692383           
16.7200000000          -0.3183441162          0.2035369873           
16.7400000000          -0.3061065674          0.2244720459           
16.7600000000          -0.2923736572          0.2437896729           
16.7800000000          -0.2781524658          0.2614898682           
16.8000000000          -0.2629547119          0.2777862549           
16.8200000000          -0.2473297119          0.2928924561           
16.8400000000          -0.2299804688          0.3073730469           
16.8600000000          -0.2133483887          0.3206176758           
16.8800000000          -0.1944427490          0.3323822021           
16.9000000000          -0.1770019531          0.3415374756           
16.9200000000          -0.1584014893          0.3508758545           
16.9400000000          -0.1393127441          0.3592529297           
16.9600000000          -0.1204986572          0.3652648926           
16.9800000000          -0.1005096436          0.3703002930           
17.0000000000          -0.0825653076          0.3739776611           
17.0200000000          -0.0636901855          0.3765869141           
17.0400000000          -0.0450897217          0.3788299561           
17.0600000000          -0.0259246826          0.3783874512           
17.0800000000          -0.0086669922          0.3783721924           
17.1000000000          0.0094299316           0.3775634766           
17.1200000000          0.0258483887           0.3741760254           
17.1400000000          0.0429992676           0.3708190918           
17.1600000000          0.0587310791           0.3671569824           
17.1800000000          0.0739135742           0.3621215820           
17.2000000000          0.0903472900           0.3560943604           
17.2200000000          0.1037139893           0.3496398926           
17.2400000000          0.1182708740           0.3414459229           
17.2600000000          0.1313934326           0.3350372314           
17.2800000000          0.1437988281           0.3264617920           
17.3000000000          0.1548614502           0.3175811768           
17.3200000000          0.1662597656           0.3076934814           
17.3400000000          0.1766967773           0.2982330322           
17.3600000000          0.1859436035           0.2878723145           
17.3800000000          0.1958618164           0.2783508301           
17.4000000000          0.2030944824           0.2681884766           
17.4200000000          0.2107086182           0.2577972412           
17.4400000000          0.2174072266           0.2480468750           
17.4600000000          0.2242431641           0.2378692627           
17.4800000000          0.2297821045           0.2277526855           
17.5000000000          0.2368621826           0.2176208496           
17.5200000000          0.2427368164           0.2055206299           
17.5400000000          0.2489471436           0.1952362061           
17.5600000000          0.2531433105           0.1842498779           
17.5800000000          0.2588348389           0.1719970703           
17.6000000000          0.2619018555           0.1593627930           
17.6200000000          0.2650146484           0.1471405029           
17.6400000000          0.2662200928           0.1353607178           
17.6600000000          0.2683105469           0.1232910156           
17.6800000000          0.2685394287           0.1109008789           
17.7000000000          0.2688751221           0.0996856689           
17.7200000000          0.2685089111           0.0869598389           
17.7400000000          0.2679443359           0.0750122070           
17.7600000000          0.2661743164           0.0640716553           
17.7800000000          0.2644348145           0.0527191162           
17.8000000000          0.2619476318           0.0403900146           
17.8200000000          0.2595062256           0.0296630859           
17.8400000000          0.2558746338           0.0188140869           
17.8600000000          0.2520294189           0.0082092285           
17.8800000000          0.2479476929           -0.0022277832          
17.9000000000          0.2434234619           -0.0127029419          
17.9200000000          0.2385406494           -0.0228805542          
17.9400000000          0.2329864502           -0.0333709717          
17.9600000000          0.2270812988           -0.0422515869          
17.9800000000          0.2204208374           -0.0518569946          
18.0000000000          0.2133255005           -0.0611114502          
18.0200000000          0.2060012817           -0.0700073242          
18.0400000000          0.1982116699           -0.0790481567          
18.0600000000          0.1898803711           -0.0870742798          
18.0800000000          0.1817169189           -0.0951385498          
18.1000000000          0.1725616455           -0.1026916504          
18.1200000000          0.1628646851           -0.1098175049          
18.1400000000          0.1535415649           -0.1167907715          
18.1600000000          0.1428222656           -0.1232833862          
18.1800000000          0.1318969727           -0.1306686401          
18.2000000000          0.1211471558           -0.1346817017          
18.2200000000          0.1097717285           -0.1397628784          
18.2400000000          0.0978469849           -0.1439895630          
18.2600000000          0.0857009888           -0.1479263306          
18.2800000000          0.0732803345           -0.1512832642          
18.3000000000          0.0603256226           -0.1537246704          
18.3200000000          0.0472183228           -0.1559219360          
18.3400000000          0.0337829590           -0.1574630737          
18.3600000000          0.0195922852           -0.1580657959          
18.3800000000          0.0049285889           -0.1581497192          
18.4000000000          -0.0102920532          -0.1563644409          
18.4200000000          -0.0255050659          -0.1534423828          
18.4400000000          -0.0401611328          -0.1486740112          
18.4600000000          -0.0533981323          -0.1428756714          
18.4800000000          -0.0656127930          -0.1362991333          
18.5000000000          -0.0772933960          -0.1303253174          
18.5200000000          -0.0887603760          -0.1236190796          
18.5400000000          -0.1003036499          -0.1173553467          
18.5600000000          -0.1122131348          -0.1104736328          
18.5800000000          -0.1245117188          -0.1025848389          
18.6000000000          -0.1370544434          -0.0929718018          
18.6200000000          -0.1486816406          -0.0824127197          
18.6400000000          -0.1588897705          -0.0708312988          
18.6600000000          -0.1684265137          -0.0582885742          
18.6800000000          -0.1768951416          -0.0456237793          
18.7000000000          -0.1850433350          -0.0324707031          
18.7200000000          -0.1924743652          -0.0188598633          
18.7400000000          -0.1990966797          -0.0047149658          
18.7600000000          -0.2050781250          0.0097198486           
18.7800000000          -0.2096557617          0.0247039795           
18.8000000000          -0.2144775391          0.0405731201           
18.8200000000          -0.2178497314          0.0563812256           
18.8400000000          -0.2199401855          0.0727691650           
18.8600000000          -0.2212829590          0.0895080566           
18.8800000000          -0.2216033936          0.1059112549           
18.9000000000          -0.2204742432          0.1223907471           
18.9200000000          -0.2185974121          0.1395111084           
18.9400000000          -0.2154998779          0.1564788818           
18.9600000000          -0.2115936279          0.1731567383           
18.9800000000          -0.2059936523          0.1894531250           
19.0000000000          -0.1998443604          0.2055206299           
19.0200000000          -0.1928405762          0.2213592529           
19.0400000000          -0.1846771240          0.2368011475           
19.0600000000          -0.1750793457          0.2520141602           
19.0800000000          -0.1644287109          0.2658996582           
19.1000000000          -0.1530151367          0.2799987793           
19.1200000000          -0.1413574219          0.2922058105           
19.1400000000          -0.1283569336          0.3054809570           
19.1600000000          -0.1158752441          0.3164062500           
19.1800000000          -0.1002197266          0.3269348145           
19.2000000000          -0.0854797363          0.3378906250           
19.2200000000          -0.0699768066          0.3461914063           
19.2400000000          -0.0532226563          0.3540344238           
19.2600000000          -0.0372009277          0.3610229492           
19.2800000000          -0.0193786621          0.3668518066           
19.3000000000          -0.0015563965          0.3715209961           
19.3200000000          0.0163574219           0.3749084473           
19.3400000000          0.0345153809           0.3771362305           
19.3600000000          0.0538330078           0.3782348633           
19.3800000000          0.0710754395           0.3786926270           
19.4000000000          0.0901794434           0.3774108887           
19.4200000000          0.1075744629           0.3748474121           
19.4400000000          0.1251220703           0.3715820313           
19.4600000000          0.1434326172           0.3668518066           
19.4800000000          0.1602478027           0.3619995117           
19.5000000000          0.1763916016           0.3546447754           
19.5200000000          0.1932373047           0.3478698730           
19.5400000000          0.2087097168           0.3389892578           
19.5600000000          0.2234191895           0.3299255371           
19.5800000000          0.2376708984           0.3199462891           
19.6000000000          0.2507629395           0.3086853027           
19.6200000000          0.2633361816           0.2975769043           
19.6400000000          0.2749633789           0.2855224609           
19.6600000000          0.2863159180           0.2742614746           
19.6800000000          0.2958068848           0.2611389160           
19.7000000000          0.3043518066           0.2491455078           
19.7200000000          0.3143615723           0.2375183105           
19.7400000000          0.3222045898           0.2258300781           
19.7600000000          0.3298339844           0.2135314941           
19.7800000000          0.3388671875           0.2016296387           
19.8000000000          0.3468017578           0.1893005371           
19.8200000000          0.3554992676           0.1763610840           
19.8400000000          0.3636169434           0.1632690430           
19.8600000000          0.3726806641           0.1490783691           
19.8800000000          0.3808593750           0.1337585449           
19.9000000000          0.3896179199           0.1174926758           
19.9200000000          0.3972167969           0.0996704102           
19.9400000000          0.4047241211           0.0789184570           
19.9600000000          0.4099121094           0.0586547852           
19.9800000000          0.4142761230           0.0366516113           
20.0000000000          0.4178771973           0.0144042969           
20.0200000000          0.4181823730           -0.0092773438          
20.0400000000          0.4171142578           -0.0335998535          
20.0600000000          0.4151916504           -0.0592651367          
20.0800000000          0.4102172852           -0.0840148926          
20.1000000000          0.4037170410           -0.1085205078          
!$Notes
!17M dipole rotated to vertical. 
!About 1M from tower. 
!$State
!   Measurement DONE
!       Measurement Points=201
!       Fstart=16.1 MHz
!       Fstop=20.1 MHz
!       IF BW=3000Hz
!       Source Pwr=0 dBm
!       Delay=0 ps
!       Correction =Yes
!       HPIB Time Out Setting=80 s
!       Sweep Time=0.1s
!       Actual Time=1.34s
