# MHz S RI R 50 
! S-Parameters data 
! Freq   reS11   imS11  
16.1000000000          0.1012268066           -0.5478820801          
16.1200000000          0.0545654297           -0.5514526367          
16.1400000000          0.0071105957           -0.5516357422          
16.1600000000          -0.0409545898          -0.5482788086          
16.1800000000          -0.0888671875          -0.5397033691          
16.2000000000          -0.1346435547          -0.5274658203          
16.2200000000          -0.1809997559          -0.5131225586          
16.2400000000          -0.2239532471          -0.4940338135          
16.2600000000          -0.2653656006          -0.4708709717          
16.2800000000          -0.3053894043          -0.4459991455          
16.3000000000          -0.3423767090          -0.4175415039          
16.3200000000          -0.3782348633          -0.3854217529          
16.3400000000          -0.4104309082          -0.3521881104          
16.3600000000          -0.4389038086          -0.3148040771          
16.3800000000          -0.4642028809          -0.2777709961          
16.4000000000          -0.4867858887          -0.2369384766          
16.4200000000          -0.5055236816          -0.1963500977          
16.4400000000          -0.5216064453          -0.1546630859          
16.4600000000          -0.5337524414          -0.1122436523          
16.4800000000          -0.5430297852          -0.0680541992          
16.5000000000          -0.5468750000          -0.0239257813          
16.5200000000          -0.5490417480          0.0180053711           
16.5400000000          -0.5474853516          0.0613403320           
16.5600000000          -0.5429687500          0.1044921875           
16.5800000000          -0.5356750488          0.1452941895           
16.6000000000          -0.5242614746          0.1863708496           
16.6200000000          -0.5107727051          0.2257995605           
16.6400000000          -0.4946594238          0.2629089355           
16.6600000000          -0.4764099121          0.2979125977           
16.6800000000          -0.4541625977          0.3327941895           
16.7000000000          -0.4317016602          0.3644104004           
16.7200000000          -0.4050140381          0.3941802979           
16.7400000000          -0.3795776367          0.4219360352           
16.7600000000          -0.3500823975          0.4479980469           
16.7800000000          -0.3193969727          0.4705200195           
16.8000000000          -0.2883605957          0.4911041260           
16.8200000000          -0.2550659180          0.5093994141           
16.8400000000          -0.2216491699          0.5259399414           
16.8600000000          -0.1866760254          0.5390930176           
16.8800000000          -0.1519470215          0.5492553711           
16.9000000000          -0.1168212891          0.5574951172           
16.9200000000          -0.0802612305          0.5621643066           
16.9400000000          -0.0448913574          0.5648803711           
16.9600000000          -0.0095825195          0.5650634766           
16.9800000000          0.0253601074           0.5628356934           
17.0000000000          0.0610656738           0.5581970215           
17.0200000000          0.0942993164           0.5502014160           
17.0400000000          0.1284484863           0.5400085449           
17.0600000000          0.1600036621           0.5278015137           
17.0800000000          0.1909484863           0.5137023926           
17.1000000000          0.2201843262           0.4970550537           
17.1200000000          0.2484893799           0.4784240723           
17.1400000000          0.2751922607           0.4573822021           
17.1600000000          0.2984161377           0.4355621338           
17.1800000000          0.3209838867           0.4113464355           
17.2000000000          0.3414306641           0.3858947754           
17.2200000000          0.3596801758           0.3595886230           
17.2400000000          0.3757934570           0.3327331543           
17.2600000000          0.3888549805           0.3039855957           
17.2800000000          0.3998718262           0.2752075195           
17.3000000000          0.4095764160           0.2445678711           
17.3200000000          0.4172668457           0.2149353027           
17.3400000000          0.4220886230           0.1842651367           
17.3600000000          0.4234619141           0.1541442871           
17.3800000000          0.4247131348           0.1256103516           
17.4000000000          0.4220581055           0.0954589844           
17.4200000000          0.4164123535           0.0662841797           
17.4400000000          0.4108428955           0.0378417969           
17.4600000000          0.4015960693           0.0103149414           
17.4800000000          0.3940582275           -0.0167846680          
17.5000000000          0.3784179688           -0.0424041748          
17.5200000000          0.3642120361           -0.0676879883          
17.5400000000          0.3467254639           -0.0906524658          
17.5600000000          0.3288879395           -0.1127014160          
17.5800000000          0.3086700439           -0.1334228516          
17.6000000000          0.2866668701           -0.1521759033          
17.6200000000          0.2622528076           -0.1681671143          
17.6400000000          0.2375030518           -0.1822967529          
17.6600000000          0.2106857300           -0.1928100586          
17.6800000000          0.1852111816           -0.2015304565          
17.7000000000          0.1576080322           -0.2080535889          
17.7200000000          0.1307983398           -0.2110671997          
17.7400000000          0.1026153564           -0.2133941650          
17.7600000000          0.0759429932           -0.2108078003          
17.7800000000          0.0501556396           -0.2068710327          
17.8000000000          0.0254440308           -0.1997222900          
17.8200000000          0.0012741089           -0.1909866333          
17.8400000000          -0.0220489502          -0.1799850464          
17.8600000000          -0.0432357788          -0.1670074463          
17.8800000000          -0.0626983643          -0.1522445679          
17.9000000000          -0.0805053711          -0.1358566284          
17.9200000000          -0.0962371826          -0.1182327271          
17.9400000000          -0.1100158691          -0.0996475220          
17.9600000000          -0.1216735840          -0.0801010132          
17.9800000000          -0.1311492920          -0.0598526001          
18.0000000000          -0.1388244629          -0.0390853882          
18.0200000000          -0.1445770264          -0.0172729492          
18.0400000000          -0.1475677490          0.0037689209           
18.0600000000          -0.1481552124          0.0249328613           
18.0800000000          -0.1470870972          0.0449218750           
18.1000000000          -0.1441345215          0.0652770996           
18.1200000000          -0.1389007568          0.0848617554           
18.1400000000          -0.1315155029          0.1030502319           
18.1600000000          -0.1224746704          0.1207923889           
18.1800000000          -0.1120147705          0.1370925903           
18.2000000000          -0.1007690430          0.1522140503           
18.2200000000          -0.0879440308          0.1660232544           
18.2400000000          -0.0729446411          0.1775512695           
18.2600000000          -0.0574188232          0.1881942749           
18.2800000000          -0.0405197144          0.1965255737           
18.3000000000          -0.0228958130          0.2032012939           
18.3200000000          -0.0049362183          0.2069854736           
18.3400000000          0.0132064819           0.2088623047           
18.3600000000          0.0310592651           0.2082290649           
18.3800000000          0.0479660034           0.2053909302           
18.4000000000          0.0641021729           0.2011795044           
18.4200000000          0.0788345337           0.1953735352           
18.4400000000          0.0923309326           0.1890029907           
18.4600000000          0.1043548584           0.1821899414           
18.4800000000          0.1170806885           0.1747741699           
18.5000000000          0.1296539307           0.1649322510           
18.5200000000          0.1420593262           0.1539916992           
18.5400000000          0.1528778076           0.1414337158           
18.5600000000          0.1623992920           0.1276245117           
18.5800000000          0.1701507568           0.1126251221           
18.6000000000          0.1764831543           0.0962982178           
18.6200000000          0.1810760498           0.0790252686           
18.6400000000          0.1834716797           0.0613403320           
18.6600000000          0.1838378906           0.0428771973           
18.6800000000          0.1821594238           0.0244903564           
18.7000000000          0.1783599854           0.0059204102           
18.7200000000          0.1725006104           -0.0123901367          
18.7400000000          0.1635437012           -0.0304565430          
18.7600000000          0.1529922485           -0.0472640991          
18.7800000000          0.1401748657           -0.0627746582          
18.8000000000          0.1258926392           -0.0764541626          
18.8200000000          0.1091842651           -0.0885543823          
18.8400000000          0.0914916992           -0.0986557007          
18.8600000000          0.0732345581           -0.1069259644          
18.8800000000          0.0538177490           -0.1132278442          
18.9000000000          0.0339431763           -0.1174468994          
18.9200000000          0.0134735107           -0.1193695068          
18.9400000000          -0.0070495605          -0.1199340820          
18.9600000000          -0.0277862549          -0.1181335449          
18.9800000000          -0.0489196777          -0.1147918701          
19.0000000000          -0.0694580078          -0.1089630127          
19.0200000000          -0.0896911621          -0.1016540527          
19.0400000000          -0.1094055176          -0.0918731689          
19.0600000000          -0.1284179688          -0.0804748535          
19.0800000000          -0.1467895508          -0.0664215088          
19.1000000000          -0.1634521484          -0.0509796143          
19.1200000000          -0.1793365479          -0.0336303711          
19.1400000000          -0.1928100586          -0.0147705078          
19.1600000000          -0.2053222656          0.0051727295           
19.1800000000          -0.2159729004          0.0273437500           
19.2000000000          -0.2244873047          0.0499267578           
19.2200000000          -0.2310180664          0.0739135742           
19.2400000000          -0.2354583740          0.0980987549           
19.2600000000          -0.2373352051          0.1232452393           
19.2800000000          -0.2374114990          0.1485900879           
19.3000000000          -0.2352600098          0.1740875244           
19.3200000000          -0.2304534912          0.1996917725           
19.3400000000          -0.2233581543          0.2249450684           
19.3600000000          -0.2135925293          0.2497253418           
19.3800000000          -0.2030029297          0.2729492188           
19.4000000000          -0.1891784668          0.2953796387           
19.4200000000          -0.1735839844          0.3173828125           
19.4400000000          -0.1566467285          0.3375549316           
19.4600000000          -0.1386718750          0.3572998047           
19.4800000000          -0.1182250977          0.3712158203           
19.5000000000          -0.0971984863          0.3894348145           
19.5200000000          -0.0740356445          0.4035339355           
19.5400000000          -0.0488281250          0.4173583984           
19.5600000000          -0.0242309570          0.4273681641           
19.5800000000          0.0025634766           0.4365234375           
19.6000000000          0.0299072266           0.4434814453           
19.6200000000          0.0562133789           0.4488525391           
19.6400000000          0.0854492188           0.4499511719           
19.6600000000          0.1127319336           0.4514770508           
19.6800000000          0.1416625977           0.4489746094           
19.7000000000          0.1697998047           0.4461669922           
19.7200000000          0.1971435547           0.4392089844           
19.7400000000          0.2247314453           0.4315795898           
19.7600000000          0.2516784668           0.4211425781           
19.7800000000          0.2792053223           0.4082946777           
19.8000000000          0.3044128418           0.3943481445           
19.8200000000          0.3283386230           0.3782958984           
19.8400000000          0.3515014648           0.3606567383           
19.8600000000          0.3733825684           0.3401794434           
19.8800000000          0.3949890137           0.3184509277           
19.9000000000          0.4131469727           0.2952880859           
19.9200000000          0.4293212891           0.2716064453           
19.9400000000          0.4447326660           0.2456970215           
19.9600000000          0.4585266113           0.2188720703           
19.9800000000          0.4701232910           0.1908874512           
20.0000000000          0.4792175293           0.1624450684           
20.0200000000          0.4859619141           0.1343688965           
20.0400000000          0.4907226563           0.1048583984           
20.0600000000          0.4945983887           0.0768432617           
20.0800000000          0.4952697754           0.0476074219           
20.1000000000          0.4958801270           0.0175781250           
!$Notes
!17M dipole rotated to vertical. 
!About 1M from tower. 
!Added about 2" each end with lead weight to keep the damn thing down! 
!$State
!   Measurement DONE
!       Measurement Points=201
!       Fstart=16.1 MHz
!       Fstop=20.1 MHz
!       IF BW=3000Hz
!       Source Pwr=0 dBm
!       Delay=0 ps
!       Correction =Yes
!       HPIB Time Out Setting=80 s
!       Sweep Time=0.1s
!       Actual Time=1.25s
