# MHz S RI R 50 
! S-Parameters data 
! Freq   reS11   imS11  
14.0000000000          0.1647186279           0.1419372559           
14.0025000000          0.1645355225           0.1424865723           
14.0050000000          0.1645202637           0.1428680420           
14.0075000000          0.1646118164           0.1434020996           
14.0100000000          0.1647949219           0.1441497803           
14.0125000000          0.1654968262           0.1447448730           
14.0150000000          0.1658020020           0.1453704834           
14.0175000000          0.1660308838           0.1455078125           
14.0200000000          0.1666564941           0.1455078125           
14.0225000000          0.1670379639           0.1459808350           
14.0250000000          0.1676788330           0.1463165283           
14.0275000000          0.1682739258           0.1466217041           
14.0300000000          0.1688079834           0.1470947266           
14.0325000000          0.1689300537           0.1469726563           
14.0350000000          0.1700592041           0.1471405029           
14.0375000000          0.1705932617           0.1470184326           
14.0400000000          0.1713867188           0.1470794678           
14.0425000000          0.1719818115           0.1465606689           
14.0450000000          0.1726837158           0.1463165283           
14.0475000000          0.1741180420           0.1462707520           
14.0500000000          0.1745605469           0.1459503174           
14.0525000000          0.1757965088           0.1456298828           
14.0550000000          0.1769561768           0.1453704834           
14.0575000000          0.1780242920           0.1447143555           
14.0600000000          0.1787414551           0.1439514160           
14.0625000000          0.1797485352           0.1436309814           
14.0650000000          0.1805572510           0.1428833008           
14.0675000000          0.1806335449           0.1421966553           
14.0700000000          0.1824188232           0.1415100098           
14.0725000000          0.1819458008           0.1404418945           
14.0750000000          0.1839294434           0.1405944824           
14.0775000000          0.1848144531           0.1388854980           
14.0800000000          0.1853485107           0.1382293701           
14.0825000000          0.1859436035           0.1371154785           
14.0850000000          0.1867828369           0.1355285645           
14.0875000000          0.1881103516           0.1350250244           
14.0900000000          0.1893463135           0.1339416504           
14.0925000000          0.1901245117           0.1329956055           
14.0950000000          0.1903228760           0.1314392090           
14.0975000000          0.1912078857           0.1293640137           
14.1000000000          0.1923370361           0.1285705566           
14.1025000000          0.1926574707           0.1273803711           
14.1050000000          0.1935882568           0.1255340576           
14.1075000000          0.1943511963           0.1241607666           
14.1100000000          0.1947174072           0.1227722168           
14.1125000000          0.1952972412           0.1216735840           
14.1150000000          0.1953277588           0.1200103760           
14.1175000000          0.1953887939           0.1181640625           
14.1200000000          0.1967315674           0.1166839600           
14.1225000000          0.1979980469           0.1154022217           
14.1250000000          0.1979522705           0.1139831543           
14.1275000000          0.1976470947           0.1115264893           
14.1300000000          0.1978607178           0.1098480225           
14.1325000000          0.1985626221           0.1084747314           
14.1350000000          0.1986389160           0.1064300537           
14.1375000000          0.1988220215           0.1045837402           
14.1400000000          0.1996612549           0.1027832031           
14.1425000000          0.1995544434           0.1009674072           
14.1450000000          0.1990203857           0.0989532471           
14.1475000000          0.1996307373           0.0970153809           
14.1500000000          0.1994781494           0.0953826904           
14.1525000000          0.1998291016           0.0933074951           
14.1550000000          0.2000427246           0.0921783447           
14.1575000000          0.1986389160           0.0899200439           
14.1600000000          0.1983032227           0.0878601074           
14.1625000000          0.1988983154           0.0864868164           
14.1650000000          0.1981353760           0.0837554932           
14.1675000000          0.1980590820           0.0820312500           
14.1700000000          0.1979217529           0.0804138184           
14.1725000000          0.1971588135           0.0787048340           
14.1750000000          0.1960296631           0.0762634277           
14.1775000000          0.1962432861           0.0743713379           
14.1800000000          0.1956481934           0.0724639893           
14.1825000000          0.1940765381           0.0703277588           
14.1850000000          0.1935882568           0.0680236816           
14.1875000000          0.1930084229           0.0661010742           
14.1900000000          0.1924896240           0.0644226074           
14.1925000000          0.1917266846           0.0624542236           
14.1950000000          0.1916046143           0.0610351563           
14.1975000000          0.1900787354           0.0592651367           
14.2000000000          0.1883850098           0.0578155518           
14.2025000000          0.1874694824           0.0554046631           
14.2050000000          0.1869812012           0.0538940430           
14.2075000000          0.1857910156           0.0522613525           
14.2100000000          0.1846466064           0.0501861572           
14.2125000000          0.1832885742           0.0482788086           
14.2150000000          0.1813659668           0.0472717285           
14.2175000000          0.1801910400           0.0444946289           
14.2200000000          0.1794433594           0.0434722900           
14.2225000000          0.1782379150           0.0420227051           
14.2250000000          0.1766052246           0.0402069092           
14.2275000000          0.1757965088           0.0387420654           
14.2300000000          0.1733551025           0.0373535156           
14.2325000000          0.1706390381           0.0361022949           
14.2350000000          0.1690826416           0.0338287354           
14.2375000000          0.1682434082           0.0325469971           
14.2400000000          0.1669464111           0.0315399170           
14.2425000000          0.1654510498           0.0304718018           
14.2450000000          0.1637573242           0.0288543701           
14.2475000000          0.1621017456           0.0280303955           
14.2500000000          0.1595840454           0.0268249512           
14.2525000000          0.1575851440           0.0253295898           
14.2550000000          0.1558609009           0.0243377686           
14.2575000000          0.1538696289           0.0231323242           
14.2600000000          0.1521606445           0.0221939087           
14.2625000000          0.1500778198           0.0213470459           
14.2650000000          0.1468505859           0.0207519531           
14.2675000000          0.1449661255           0.0192413330           
14.2700000000          0.1433639526           0.0183486938           
14.2725000000          0.1420745850           0.0182266235           
14.2750000000          0.1392211914           0.0173416138           
14.2775000000          0.1364822388           0.0168685913           
14.2800000000          0.1344299316           0.0158615112           
14.2825000000          0.1328582764           0.0158996582           
14.2850000000          0.1302108765           0.0153579712           
14.2875000000          0.1283111572           0.0148544312           
14.2900000000          0.1266021729           0.0147476196           
14.2925000000          0.1242141724           0.0143508911           
14.2950000000          0.1212692261           0.0139846802           
14.2975000000          0.1189117432           0.0136108398           
14.3000000000          0.1164245605           0.0139541626           
14.3025000000          0.1146621704           0.0138473511           
14.3050000000          0.1117477417           0.0140151978           
14.3075000000          0.1087570190           0.0138778687           
14.3100000000          0.1065750122           0.0138854980           
14.3125000000          0.1048126221           0.0143737793           
14.3150000000          0.1029510498           0.0149536133           
14.3175000000          0.1001968384           0.0155868530           
14.3200000000          0.0973663330           0.0157852173           
14.3225000000          0.0955810547           0.0161819458           
14.3250000000          0.0934753418           0.0167312622           
14.3275000000          0.0910263062           0.0175552368           
14.3300000000          0.0886917114           0.0183639526           
14.3325000000          0.0864410400           0.0192260742           
14.3350000000          0.0841217041           0.0199813843           
14.3375000000          0.0817184448           0.0212554932           
14.3400000000          0.0796775818           0.0220718384           
14.3425000000          0.0771064758           0.0232238770           
14.3450000000          0.0747451782           0.0244560242           
14.3475000000          0.0723228455           0.0258140564           
14.3500000000          0.0700950623           0.0271377563           
14.3525000000          0.0680236816           0.0287513733           
14.3550000000          0.0656433105           0.0301361084           
14.3575000000          0.0635948181           0.0318984985           
14.3600000000          0.0616416931           0.0333290100           
14.3625000000          0.0593643188           0.0348587036           
14.3650000000          0.0578498840           0.0368347168           
14.3675000000          0.0560264587           0.0388259888           
14.3700000000          0.0541152954           0.0407218933           
14.3725000000          0.0521087646           0.0426788330           
14.3750000000          0.0501976013           0.0447616577           
14.3775000000          0.0484657288           0.0469932556           
14.3800000000          0.0468864441           0.0490226746           
14.3825000000          0.0449905396           0.0515670776           
14.3850000000          0.0431938171           0.0537986755           
14.3875000000          0.0418701172           0.0564270020           
14.3900000000          0.0398941040           0.0592918396           
14.3925000000          0.0384407043           0.0618972778           
14.3950000000          0.0373115540           0.0643501282           
14.3975000000          0.0359725952           0.0671081543           
14.4000000000          0.0346450806           0.0700988770           
14.4025000000          0.0335540771           0.0728759766           
14.4050000000          0.0322570801           0.0756149292           
14.4075000000          0.0315933228           0.0784454346           
14.4100000000          0.0306167603           0.0812911987           
14.4125000000          0.0298385620           0.0845718384           
14.4150000000          0.0290069580           0.0876312256           
14.4175000000          0.0282669067           0.0907516479           
14.4200000000          0.0277023315           0.0943527222           
14.4225000000          0.0271606445           0.0974121094           
14.4250000000          0.0266494751           0.1010589600           
14.4275000000          0.0264434814           0.1044845581           
14.4300000000          0.0260696411           0.1081466675           
14.4325000000          0.0260238647           0.1119842529           
14.4350000000          0.0260314941           0.1154098511           
14.4375000000          0.0261917114           0.1190490723           
14.4400000000          0.0262298584           0.1227416992           
14.4425000000          0.0266418457           0.1264724731           
14.4450000000          0.0267028809           0.1302108765           
14.4475000000          0.0274505615           0.1337890625           
14.4500000000          0.0282211304           0.1374130249           
14.4525000000          0.0287704468           0.1411895752           
14.4550000000          0.0299987793           0.1450500488           
14.4575000000          0.0310211182           0.1486816406           
14.4600000000          0.0320129395           0.1527404785           
14.4625000000          0.0333404541           0.1562957764           
14.4650000000          0.0343780518           0.1603698730           
14.4675000000          0.0359649658           0.1646118164           
14.4700000000          0.0375823975           0.1685638428           
14.4725000000          0.0392150879           0.1726684570           
14.4750000000          0.0412445068           0.1765594482           
14.4775000000          0.0433349609           0.1805419922           
14.4800000000          0.0451965332           0.1845397949           
14.4825000000          0.0482177734           0.1882171631           
14.4850000000          0.0502624512           0.1922302246           
14.4875000000          0.0527038574           0.1959991455           
14.4900000000          0.0553436279           0.1997375488           
14.4925000000          0.0580291748           0.2031097412           
14.4950000000          0.0611267090           0.2068176270           
14.4975000000          0.0641326904           0.2106170654           
14.5000000000          0.0675048828           0.2147521973           
!$Notes
!KT 34 North
!September 21, 2018
!$State
!   Measurement DONE
!       Measurement Points=201
!       Fstart=14 MHz
!       Fstop=14.5 MHz
!       IF BW=3000Hz
!       Source Pwr=0 dBm
!       Delay=0 ps
!       Correction =Yes
!       HPIB Time Out Setting=80 s
!       Sweep Time=0.1s
!
!
!       Actual Time=1.03s
