# MHz S RI R 50 
! S-Parameters data 
! Freq   reS11   imS11  
14.0000000000          0.1722717285           0.0992126465           
14.0025000000          0.1710968018           0.0994110107           
14.0050000000          0.1702575684           0.0996246338           
14.0075000000          0.1699676514           0.1003723145           
14.0100000000          0.1687316895           0.1006011963           
14.0125000000          0.1680145264           0.1010742188           
14.0150000000          0.1673583984           0.1011199951           
14.0175000000          0.1665496826           0.1016845703           
14.0200000000          0.1655578613           0.1019897461           
14.0225000000          0.1649169922           0.1024932861           
14.0250000000          0.1646423340           0.1030426025           
14.0275000000          0.1639862061           0.1032104492           
14.0300000000          0.1633148193           0.1032562256           
14.0325000000          0.1628875732           0.1033325195           
14.0350000000          0.1630859375           0.1036834717           
14.0375000000          0.1623382568           0.1034240723           
14.0400000000          0.1622467041           0.1037750244           
14.0425000000          0.1621398926           0.1035308838           
14.0450000000          0.1626129150           0.1038360596           
14.0475000000          0.1620483398           0.1032409668           
14.0500000000          0.1615142822           0.1034545898           
14.0525000000          0.1615905762           0.1033630371           
14.0550000000          0.1618957520           0.1034240723           
14.0575000000          0.1613616943           0.1030120850           
14.0600000000          0.1616821289           0.1034240723           
14.0625000000          0.1616973877           0.1032867432           
14.0650000000          0.1616363525           0.1033935547           
14.0675000000          0.1611480713           0.1020965576           
14.0700000000          0.1611022949           0.1028442383           
14.0725000000          0.1610717773           0.1022033691           
14.0750000000          0.1615142822           0.1013641357           
14.0775000000          0.1608734131           0.1012725830           
14.0800000000          0.1611785889           0.1007232666           
14.0825000000          0.1616058350           0.1005096436           
14.0850000000          0.1610565186           0.0994262695           
14.0875000000          0.1616058350           0.0988769531           
14.0900000000          0.1616058350           0.0983581543           
14.0925000000          0.1622619629           0.0978546143           
14.0950000000          0.1619415283           0.0973968506           
14.0975000000          0.1618804932           0.0966949463           
14.1000000000          0.1613311768           0.0958862305           
14.1025000000          0.1619415283           0.0956420898           
14.1050000000          0.1623382568           0.0949707031           
14.1075000000          0.1616973877           0.0941162109           
14.1100000000          0.1616973877           0.0933227539           
14.1125000000          0.1620025635           0.0927886963           
14.1150000000          0.1613616943           0.0915069580           
14.1175000000          0.1616516113           0.0908966064           
14.1200000000          0.1610183716           0.0897903442           
14.1225000000          0.1606903076           0.0888061523           
14.1250000000          0.1614532471           0.0881271362           
14.1275000000          0.1612472534           0.0870132446           
14.1300000000          0.1614379883           0.0862121582           
14.1325000000          0.1607360840           0.0851135254           
14.1350000000          0.1599884033           0.0839385986           
14.1375000000          0.1597900391           0.0831680298           
14.1400000000          0.1595230103           0.0821533203           
14.1425000000          0.1597137451           0.0812759399           
14.1450000000          0.1587524414           0.0801315308           
14.1475000000          0.1584091187           0.0792388916           
14.1500000000          0.1586837769           0.0787200928           
14.1525000000          0.1577835083           0.0777359009           
14.1550000000          0.1580123901           0.0770492554           
14.1575000000          0.1571121216           0.0756530762           
14.1600000000          0.1565704346           0.0744247437           
14.1625000000          0.1561660767           0.0739364624           
14.1650000000          0.1549987793           0.0722656250           
14.1675000000          0.1538772583           0.0711441040           
14.1700000000          0.1537780762           0.0700531006           
14.1725000000          0.1528854370           0.0688629150           
14.1750000000          0.1527175903           0.0681152344           
14.1775000000          0.1517105103           0.0668029785           
14.1800000000          0.1508483887           0.0659332275           
14.1825000000          0.1508483887           0.0655517578           
14.1850000000          0.1504364014           0.0646743774           
14.1875000000          0.1490936279           0.0636749268           
14.1900000000          0.1478347778           0.0624313354           
14.1925000000          0.1471023560           0.0617218018           
14.1950000000          0.1460189819           0.0607147217           
14.1975000000          0.1457443237           0.0602798462           
14.2000000000          0.1448135376           0.0593261719           
14.2025000000          0.1436309814           0.0584869385           
14.2050000000          0.1425552368           0.0576400757           
14.2075000000          0.1412658691           0.0564041138           
14.2100000000          0.1401824951           0.0555572510           
14.2125000000          0.1390380859           0.0550689697           
14.2150000000          0.1375427246           0.0541381836           
14.2175000000          0.1354522705           0.0534591675           
14.2200000000          0.1343383789           0.0521850586           
14.2225000000          0.1336517334           0.0519332886           
14.2250000000          0.1333541870           0.0517044067           
14.2275000000          0.1320419312           0.0508499146           
14.2300000000          0.1308517456           0.0505676270           
14.2325000000          0.1293029785           0.0497207642           
14.2350000000          0.1284255981           0.0495071411           
14.2375000000          0.1277999878           0.0492630005           
14.2400000000          0.1258392334           0.0487899780           
14.2425000000          0.1239624023           0.0478591919           
14.2450000000          0.1231613159           0.0477752686           
14.2475000000          0.1220703125           0.0475845337           
14.2500000000          0.1203155518           0.0469055176           
14.2525000000          0.1186904907           0.0468826294           
14.2550000000          0.1171569824           0.0466766357           
14.2575000000          0.1157836914           0.0463027954           
14.2600000000          0.1132659912           0.0459823608           
14.2625000000          0.1124496460           0.0460433960           
14.2650000000          0.1114501953           0.0460662842           
14.2675000000          0.1101303101           0.0461807251           
14.2700000000          0.1085739136           0.0456542969           
14.2725000000          0.1069335938           0.0456848145           
14.2750000000          0.1060638428           0.0459899902           
14.2775000000          0.1048583984           0.0462722778           
14.2800000000          0.1022796631           0.0460357666           
14.2825000000          0.1015243530           0.0463409424           
14.2850000000          0.0996170044           0.0464935303           
14.2875000000          0.0981979370           0.0469284058           
14.2900000000          0.0966262817           0.0471115112           
14.2925000000          0.0953292847           0.0476837158           
14.2950000000          0.0934219360           0.0483627319           
14.2975000000          0.0921020508           0.0487899780           
14.3000000000          0.0905227661           0.0491256714           
14.3025000000          0.0890960693           0.0496902466           
14.3050000000          0.0877227783           0.0505447388           
14.3075000000          0.0862274170           0.0511093140           
14.3100000000          0.0844802856           0.0514526367           
14.3125000000          0.0832519531           0.0519943237           
14.3150000000          0.0819702148           0.0527954102           
14.3175000000          0.0805282593           0.0534896851           
14.3200000000          0.0791854858           0.0544815063           
14.3225000000          0.0777740479           0.0553283691           
14.3250000000          0.0765914917           0.0563507080           
14.3275000000          0.0749740601           0.0573806763           
14.3300000000          0.0736083984           0.0582656860           
14.3325000000          0.0723648071           0.0595703125           
14.3350000000          0.0708694458           0.0608673096           
14.3375000000          0.0693588257           0.0620117188           
14.3400000000          0.0676879883           0.0633544922           
14.3425000000          0.0665206909           0.0645523071           
14.3450000000          0.0658264160           0.0661392212           
14.3475000000          0.0647125244           0.0676345825           
14.3500000000          0.0631103516           0.0687332153           
14.3525000000          0.0621261597           0.0701293945           
14.3550000000          0.0609130859           0.0711212158           
14.3575000000          0.0599594116           0.0728454590           
14.3600000000          0.0592498779           0.0746765137           
14.3625000000          0.0580062866           0.0763854980           
14.3650000000          0.0571060181           0.0781097412           
14.3675000000          0.0561141968           0.0799331665           
14.3700000000          0.0550765991           0.0818252563           
14.3725000000          0.0541458130           0.0835189819           
14.3750000000          0.0532608032           0.0856475830           
14.3775000000          0.0526199341           0.0879135132           
14.3800000000          0.0517044067           0.0898437500           
14.3825000000          0.0510101318           0.0917816162           
14.3850000000          0.0503768921           0.0942840576           
14.3875000000          0.0498580933           0.0962371826           
14.3900000000          0.0493850708           0.0982208252           
14.3925000000          0.0488586426           0.1003265381           
14.3950000000          0.0484390259           0.1023712158           
14.3975000000          0.0478286743           0.1047363281           
14.4000000000          0.0475387573           0.1068649292           
14.4025000000          0.0473098755           0.1094360352           
14.4050000000          0.0472717285           0.1117248535           
14.4075000000          0.0467681885           0.1142425537           
14.4100000000          0.0466537476           0.1167831421           
14.4125000000          0.0466461182           0.1192169189           
14.4150000000          0.0465774536           0.1221084595           
14.4175000000          0.0468597412           0.1246337891           
14.4200000000          0.0472946167           0.1277389526           
14.4225000000          0.0472106934           0.1301651001           
14.4250000000          0.0474700928           0.1329498291           
14.4275000000          0.0481796265           0.1358184814           
14.4300000000          0.0488586426           0.1383209229           
14.4325000000          0.0492858887           0.1412353516           
14.4350000000          0.0494079590           0.1441192627           
14.4375000000          0.0502166748           0.1468353271           
14.4400000000          0.0510559082           0.1496429443           
14.4425000000          0.0520477295           0.1523895264           
14.4450000000          0.0532684326           0.1555175781           
14.4475000000          0.0538024902           0.1582641602           
14.4500000000          0.0550384521           0.1611480713           
14.4525000000          0.0566711426           0.1643981934           
14.4550000000          0.0575561523           0.1675567627           
14.4575000000          0.0591583252           0.1703796387           
14.4600000000          0.0605926514           0.1735534668           
14.4625000000          0.0621643066           0.1765289307           
14.4650000000          0.0639343262           0.1792449951           
14.4675000000          0.0663146973           0.1822814941           
14.4700000000          0.0683441162           0.1856536865           
14.4725000000          0.0699157715           0.1881408691           
14.4750000000          0.0722351074           0.1912231445           
14.4775000000          0.0744628906           0.1945953369           
14.4800000000          0.0764160156           0.1973876953           
14.4825000000          0.0782775879           0.2001495361           
14.4850000000          0.0809936523           0.2028045654           
14.4875000000          0.0835876465           0.2059631348           
14.4900000000          0.0863037109           0.2087402344           
14.4925000000          0.0895080566           0.2110900879           
14.4950000000          0.0926208496           0.2145385742           
14.4975000000          0.0954895020           0.2172088623           
14.5000000000          0.0983886719           0.2202301025           
!$Notes
!KT 34 East
!September 21, 2018
!$State
!   Measurement DONE
!       Measurement Points=201
!       Fstart=14 MHz
!       Fstop=14.5 MHz
!       IF BW=3000Hz
!       Source Pwr=0 dBm
!       Delay=0 ps
!       Correction =Yes
!       HPIB Time Out Setting=80 s
!       Sweep Time=0.1s
!
!
!       Actual Time=1.15s
