# MHz S RI R 50 
! S-Parameters data 
! Freq   reS11   imS11   reS21   imS21   reS12   imS12   reS22   imS22 
1.0000000000           0.6218872070           -0.0315551758          -56.2500000000         0.6445312500           0.0003001094           0.0010142922           0.9678344727           0.0074462891           
2.0000000000           0.6188659668           -0.0629882813          -56.1171875000         2.8984375000           0.0003686547           0.0017632246           0.9671630859           -0.0487976074          
3.0000000000           0.6139831543           -0.0949401855          -55.7617187500         4.5859375000           0.0002770424           0.0027219057           0.9600219727           -0.0849914551          
4.0000000000           0.6061401367           -0.1269226074          -55.2128906250         6.3789062500           0.0000128746           0.0038120747           0.9495239258           -0.1257324219          
5.0000000000           0.5948486328           -0.1577148438          -54.8476562500         7.8964843750           0.0005280972           0.0044157505           0.9440917969           -0.1597900391          
6.0000000000           0.5875549316           -0.1876220703          -54.4140625000         9.5019531250           0.0004949570           0.0056815147           0.9294738770           -0.1894836426          
7.0000000000           0.5779418945           -0.2169799805          -53.8222656250         11.3496093750          0.0012266636           0.0059378147           0.9213867188           -0.2226257324          
8.0000000000           0.5636596680           -0.2437438965          -53.1386718750         12.6386718750          0.0013864040           0.0072247982           0.9055175781           -0.2521667480          
9.0000000000           0.5466918945           -0.2686462402          -52.1269531250         13.6855468750          0.0013723373           0.0082917213           0.8957214355           -0.2807617188          
10.0000000000          0.5327453613           -0.2928161621          -51.5058593750         15.2656250000          0.0021753311           0.0084953308           0.8785705566           -0.3073730469          
11.0000000000          0.5173950195           -0.3190612793          -50.7421875000         16.6582031250          0.0021905899           0.0096087456           0.8586730957           -0.3368225098          
12.0000000000          0.5001220703           -0.3401489258          -49.7851562500         17.6933593750          0.0029077530           0.0099997520           0.8478698730           -0.3565673828          
13.0000000000          0.4794158936           -0.3616638184          -48.6835937500         18.7695312500          0.0030212402           0.0112080574           0.8260498047           -0.3812561035          
14.0000000000          0.4653778076           -0.3859405518          -47.9531250000         20.0351562500          0.0032863617           0.0117244720           0.8058776855           -0.4024658203          
15.0000000000          0.4438323975           -0.4028625488          -47.0898437500         20.9589843750          0.0035800934           0.0122880936           0.7876586914           -0.4311218262          
16.0000000000          0.4236602783           -0.4193725586          -45.7812500000         22.1386718750          0.0048942566           0.0139479637           0.7644653320           -0.4483032227          
17.0000000000          0.4031524658           -0.4320068359          -44.5722656250         23.0058593750          0.0045399666           0.0136055946           0.7409973145           -0.4683227539          
18.0000000000          0.3838806152           -0.4521179199          -43.6484375000         23.7929687500          0.0055007935           0.0144767761           0.7189636230           -0.4861755371          
19.0000000000          0.3613739014           -0.4617462158          -42.6015625000         24.6074218750          0.0052866936           0.0141930580           0.6992797852           -0.4983825684          
20.0000000000          0.3410186768           -0.4732666016          -41.4101562500         25.1230468750          0.0061879158           0.0152540207           0.6766967773           -0.5147705078          
21.0000000000          0.3182525635           -0.4937438965          -40.6464843750         25.9550781250          0.0063104630           0.0155034065           0.6571655273           -0.5307617188          
22.0000000000          0.2954864502           -0.4936523438          -39.3652343750         26.2187500000          0.0067052841           0.0164813995           0.6318969727           -0.5382080078          
23.0000000000          0.2792205811           -0.4998168945          -38.1328125000         26.6855468750          0.0070495605           0.0166063309           0.6151428223           -0.5476074219          
24.0000000000          0.2563781738           -0.5112915039          -37.1972656250         27.2558593750          0.0081167221           0.0172767639           0.5897521973           -0.5592956543          
25.0000000000          0.2308349609           -0.5197753906          -36.2363281250         27.8105468750          0.0076837540           0.0172805786           0.5675659180           -0.5659179688          
26.0000000000          0.2128601074           -0.5210266113          -35.0390625000         27.9707031250          0.0078487396           0.0177774429           0.5446777344           -0.5758361816          
27.0000000000          0.1961975098           -0.5280456543          -34.0527343750         28.2578125000          0.0088434219           0.0184507370           0.5214538574           -0.5747680664          
28.0000000000          0.1827697754           -0.5288085938          -33.0800781250         28.1972656250          0.0094499588           0.0189609528           0.5042114258           -0.5822448730          
29.0000000000          0.1575317383           -0.5302429199          -32.0585937500         28.4472656250          0.0097703934           0.0184583664           0.4872436523           -0.5858764648          
30.0000000000          0.1424865723           -0.5350036621          -31.1044921875         28.6708984375          0.0098867416           0.0196056366           0.4665832520           -0.5876464844          
31.0000000000          0.1230468750           -0.5395202637          -30.3017578125         28.7480468750          0.0104417801           0.0195026398           0.4435729980           -0.5934448242          
32.0000000000          0.1067504883           -0.5386047363          -29.4111328125         28.8408203125          0.0109844208           0.0195789337           0.4241638184           -0.5956115723          
33.0000000000          0.0866394043           -0.5419616699          -28.5410156250         28.9589843750          0.0113773346           0.0200910568           0.4060974121           -0.5979309082          
34.0000000000          0.0701293945           -0.5458374023          -27.6679687500         28.9130859375          0.0115842819           0.0204477310           0.3860473633           -0.5946960449          
35.0000000000          0.0563354492           -0.5369567871          -26.7011718750         28.7431640625          0.0116415024           0.0208778381           0.3704223633           -0.6018981934          
36.0000000000          0.0425720215           -0.5413513184          -26.1103515625         28.8457031250          0.0124330521           0.0208711624           0.3497314453           -0.5982360840          
37.0000000000          0.0227966309           -0.5391540527          -25.2099609375         28.8115234375          0.0120582581           0.0208816528           0.3391418457           -0.5986633301          
38.0000000000          0.0115051270           -0.5325012207          -24.2910156250         28.7402343750          0.0125875473           0.0208921432           0.3212280273           -0.5992736816          
39.0000000000          -0.0025634766          -0.5347900391          -23.7470703125         28.6425781250          0.0134782791           0.0215835571           0.3087158203           -0.5966186523          
40.0000000000          -0.0138854980          -0.5308837891          -22.9423828125         28.6035156250          0.0139923096           0.0216083527           0.2924804688           -0.5932617188          
41.0000000000          -0.0305175781          -0.5347900391          -22.4541015625         28.5078125000          0.0139493942           0.0217180252           0.2748107910           -0.5910949707          
42.0000000000          -0.0460205078          -0.5259399414          -21.5097656250         28.3720703125          0.0142726898           0.0218906403           0.2611999512           -0.5896606445          
43.0000000000          -0.0575866699          -0.5222473145          -20.9882812500         28.1542968750          0.0148515701           0.0223541260           0.2489929199           -0.5869445801          
44.0000000000          -0.0642395020          -0.5208129883          -20.3583984375         27.9033203125          0.0145845413           0.0228929520           0.2386474609           -0.5809020996          
45.0000000000          -0.0803222656          -0.5163574219          -19.6894531250         27.8251953125          0.0149145126           0.0225620270           0.2227478027           -0.5778808594          
46.0000000000          -0.0879516602          -0.5122680664          -19.1562500000         27.5849609375          0.0153017044           0.0229635239           0.2139892578           -0.5753784180          
47.0000000000          -0.1045532227          -0.5088500977          -18.4833984375         27.5107421875          0.0155458450           0.0232257843           0.2011413574           -0.5716247559          
48.0000000000          -0.1128540039          -0.5064086914          -18.0292968750         27.3056640625          0.0156145096           0.0234775543           0.1897277832           -0.5669860840          
49.0000000000          -0.1209411621          -0.5028686523          -17.4736328125         27.1533203125          0.0162944794           0.0236158371           0.1792297363           -0.5636291504          
50.0000000000          -0.1305389404          -0.4951477051          -17.0292968750         26.9111328125          0.0160465240           0.0237455368           0.1686096191           -0.5633239746          
51.0000000000          -0.1388549805          -0.4937286377          -16.6113281250         26.7236328125          0.0163030624           0.0237922668           0.1573181152           -0.5563659668          
52.0000000000          -0.1446228027          -0.4868469238          -16.0332031250         26.4951171875          0.0163230896           0.0241298676           0.1497802734           -0.5521545410          
53.0000000000          -0.1617584229          -0.4852447510          -15.4873046875         26.3457031250          0.0167989731           0.0239667892           0.1374206543           -0.5468750000          
54.0000000000          -0.1687011719          -0.4793853760          -15.1533203125         26.1796875000          0.0171089172           0.0243330002           0.1289978027           -0.5464477539          
55.0000000000          -0.1769866943          -0.4762573242          -14.7500000000         25.9619140625          0.0169811249           0.0244369507           0.1200256348           -0.5394287109          
56.0000000000          -0.1844635010          -0.4714965820          -14.3125000000         25.7373046875          0.0176334381           0.0250244141           0.1109313965           -0.5368652344          
57.0000000000          -0.1946563721          -0.4694061279          -13.8222656250         25.4980468750          0.0177049637           0.0248908997           0.1038513184           -0.5353393555          
58.0000000000          -0.1968078613          -0.4614105225          -13.5605468750         25.3076171875          0.0176277161           0.0249214172           0.0974121094           -0.5278015137          
59.0000000000          -0.2032470703          -0.4586029053          -13.1689453125         24.9921875000          0.0175762177           0.0250816345           0.0865478516           -0.5227661133          
60.0000000000          -0.2119598389          -0.4562530518          -12.7578125000         24.8798828125          0.0185813904           0.0257425308           0.0806579590           -0.5217590332          
61.0000000000          -0.2146453857          -0.4514312744          -12.4628906250         24.6562500000          0.0179853439           0.0261182785           0.0731201172           -0.5173339844          
62.0000000000          -0.2239837646          -0.4465026855          -12.0019531250         24.4531250000          0.0185012817           0.0261077881           0.0647277832           -0.5121459961          
63.0000000000          -0.2319030762          -0.4399871826          -11.7236328125         24.1367187500          0.0187129974           0.0260419846           0.0575866699           -0.5084228516          
64.0000000000          -0.2370758057          -0.4380035400          -11.4121093750         23.9990234375          0.0188159943           0.0261945724           0.0527954102           -0.5040588379          
65.0000000000          -0.2434082031          -0.4348907471          -11.0341796875         23.7988281250          0.0191745758           0.0262174606           0.0457153320           -0.4990234375          
66.0000000000          -0.2486114502          -0.4268188477          -10.7822265625         23.6455078125          0.0183982849           0.0265789032           0.0377655029           -0.4943695068          
67.0000000000          -0.2573699951          -0.4274444580          -10.5410156250         23.4462890625          0.0193347931           0.0264854431           0.0327301025           -0.4915618896          
68.0000000000          -0.2601776123          -0.4190521240          -10.2080078125         23.2705078125          0.0195589066           0.0276584625           0.0279846191           -0.4873504639          
69.0000000000          -0.2623443604          -0.4154815674          -10.0078125000         22.9960937500          0.0196304321           0.0271396637           0.0198974609           -0.4825439453          
70.0000000000          -0.2733764648          -0.4095764160          -9.7050781250          22.8955078125          0.0194549561           0.0276508331           0.0167999268           -0.4801788330          
71.0000000000          -0.2776641846          -0.4065551758          -9.4404296875          22.6347656250          0.0200586319           0.0272130966           0.0100860596           -0.4752960205          
72.0000000000          -0.2815704346          -0.4038848877          -9.2294921875          22.4423828125          0.0197944641           0.0278196335           0.0057830811           -0.4735107422          
73.0000000000          -0.2886199951          -0.3995513916          -8.9121093750          22.1796875000          0.0201625824           0.0279293060           -0.0007019043          -0.4692993164          
74.0000000000          -0.2918243408          -0.3903808594          -8.7343750000          22.0537109375          0.0196437836           0.0280084610           -0.0067901611          -0.4660797119          
75.0000000000          -0.2948455811          -0.3958740234          -8.4257812500          21.9033203125          0.0200710297           0.0282402039           -0.0110168457          -0.4615325928          
76.0000000000          -0.2967071533          -0.3868560791          -8.3417968750          21.6367187500          0.0205001831           0.0288543701           -0.0147247314          -0.4552459717          
77.0000000000          -0.3022460938          -0.3809661865          -8.0781250000          21.4677734375          0.0207500458           0.0292615891           -0.0174560547          -0.4528045654          
78.0000000000          -0.3072967529          -0.3752746582          -7.8798828125          21.2460937500          0.0203447342           0.0287885666           -0.0232543945          -0.4491119385          
79.0000000000          -0.3079681396          -0.3778076172          -7.7343750000          21.1669921875          0.0211744308           0.0284652710           -0.0255432129          -0.4469757080          
80.0000000000          -0.3131408691          -0.3724975586          -7.4609375000          20.9941406250          0.0207395554           0.0285730362           -0.0316467285          -0.4413909912          
81.0000000000          -0.3188781738          -0.3716125488          -7.3281250000          20.7578125000          0.0208044052           0.0293493271           -0.0345001221          -0.4378967285          
82.0000000000          -0.3232574463          -0.3629302979          -7.0468750000          20.6074218750          0.0206308365           0.0302085876           -0.0383148193          -0.4327545166          
83.0000000000          -0.3241729736          -0.3593902588          -6.9687500000          20.4199218750          0.0212955475           0.0293664932           -0.0410919189          -0.4312896729          
84.0000000000          -0.3275756836          -0.3574981689          -6.8505859375          20.2070312500          0.0218038559           0.0298213959           -0.0463256836          -0.4263000488          
85.0000000000          -0.3320312500          -0.3518066406          -6.5878906250          20.0556640625          0.0215415955           0.0306940079           -0.0496368408          -0.4241790771          
86.0000000000          -0.3347778320          -0.3461914063          -6.4179687500          19.8466796875          0.0214500427           0.0307846069           -0.0533752441          -0.4230499268          
87.0000000000          -0.3372039795          -0.3438110352          -6.2675781250          19.7216796875          0.0212574005           0.0305500031           -0.0567779541          -0.4167327881          
88.0000000000          -0.3418121338          -0.3413238525          -6.1220703125          19.5527343750          0.0215225220           0.0310392380           -0.0585784912          -0.4126739502          
89.0000000000          -0.3453826904          -0.3367919922          -6.0058593750          19.3828125000          0.0213508606           0.0314731598           -0.0632476807          -0.4094238281          
90.0000000000          -0.3449859619          -0.3316497803          -5.8662109375          19.2041015625          0.0216140747           0.0313034058           -0.0653381348          -0.4072875977          
91.0000000000          -0.3498840332          -0.3323059082          -5.6582031250          19.0283203125          0.0218830109           0.0313720703           -0.0690765381          -0.4054260254          
92.0000000000          -0.3514862061          -0.3268737793          -5.5634765625          18.8710937500          0.0217885971           0.0312461853           -0.0726470947          -0.4015350342          
93.0000000000          -0.3552246094          -0.3242492676          -5.4667968750          18.7597656250          0.0218448639           0.0315246582           -0.0759429932          -0.3978424072          
94.0000000000          -0.3566284180          -0.3231658936          -5.2978515625          18.5839843750          0.0222053528           0.0323696136           -0.0769653320          -0.3954772949          
95.0000000000          -0.3575134277          -0.3205718994          -5.1699218750          18.4511718750          0.0220127106           0.0323753357           -0.0815582275          -0.3923950195          
