# MHz S RI R 50 
! S-Parameters data 
! Freq   reS11   imS11   reS21   imS21   reS12   imS12   reS22   imS22 
1.0000000000           0.5916748047           -0.0289001465          -57.1835937500         0.6484375000           0.0002738535           0.0008771718           0.9629516602           0.0201110840           
2.0000000000           0.5896606445           -0.0593261719          -56.9960937500         2.9023437500           0.0001997352           0.0016958714           0.9690856934           -0.0451660156          
3.0000000000           0.5838623047           -0.0890808105          -56.5078125000         4.8671875000           0.0003936291           0.0029193163           0.9591979980           -0.0827636719          
4.0000000000           0.5774841309           -0.1209106445          -56.0507812500         6.5820312500           -0.0000001192          0.0033156872           0.9518127441           -0.1186218262          
5.0000000000           0.5660705566           -0.1503295898          -55.8925781250         7.9199218750           0.0007345676           0.0043134689           0.9425964355           -0.1493530273          
6.0000000000           0.5591430664           -0.1759948730          -55.2617187500         9.8789062500           0.0008358955           0.0050098896           0.9334716797           -0.1776123047          
7.0000000000           0.5480346680           -0.2041931152          -54.5507812500         11.5195312500          0.0012731552           0.0060954094           0.9208374023           -0.2173767090          
8.0000000000           0.5353698730           -0.2304382324          -53.9589843750         13.1035156250          0.0011875629           0.0067381859           0.9083557129           -0.2410888672          
9.0000000000           0.5238342285           -0.2535095215          -53.1210937500         14.1796875000          0.0012116432           0.0078434944           0.8877258301           -0.2711181641          
10.0000000000          0.5083923340           -0.2758483887          -52.4941406250         15.4511718750          0.0019292831           0.0083627701           0.8781127930           -0.2938232422          
11.0000000000          0.4932403564           -0.2991333008          -51.5097656250         16.9707031250          0.0021758080           0.0086741447           0.8616943359           -0.3271789551          
12.0000000000          0.4750213623           -0.3209228516          -50.4707031250         18.1562500000          0.0024194717           0.0097541809           0.8458557129           -0.3508605957          
13.0000000000          0.4604797363           -0.3403625488          -49.6093750000         19.3730468750          0.0030102730           0.0103569031           0.8226623535           -0.3662414551          
14.0000000000          0.4433898926           -0.3616638184          -48.7421875000         20.2578125000          0.0030999184           0.0113139153           0.8062133789           -0.3839416504          
15.0000000000          0.4250793457           -0.3795928955          -47.8339843750         21.5722656250          0.0036129951           0.0114283562           0.7891540527           -0.4093933105          
16.0000000000          0.4063262939           -0.3920288086          -46.5429687500         22.6132812500          0.0039634705           0.0125613213           0.7688598633           -0.4330749512          
17.0000000000          0.3864746094           -0.4038543701          -45.2011718750         23.3925781250          0.0046067238           0.0129542351           0.7489318848           -0.4507446289          
18.0000000000          0.3699035645           -0.4232940674          -44.2851562500         24.2460937500          0.0046625137           0.0137896538           0.7281188965           -0.4668273926          
19.0000000000          0.3449096680           -0.4345397949          -43.1816406250         24.9980468750          0.0047798157           0.0136780739           0.7042846680           -0.4805908203          
20.0000000000          0.3283538818           -0.4433593750          -42.0371093750         25.5156250000          0.0051679611           0.0144686699           0.6815490723           -0.4920654297          
21.0000000000          0.3055267334           -0.4597625732          -41.1132812500         26.2812500000          0.0058178902           0.0148620605           0.6648254395           -0.5093994141          
22.0000000000          0.2823638916           -0.4621124268          -39.7265625000         26.7207031250          0.0062522888           0.0149788857           0.6427612305           -0.5163574219          
23.0000000000          0.2704315186           -0.4658966064          -38.6464843750         26.9765625000          0.0067133904           0.0153589249           0.6254577637           -0.5251159668          
24.0000000000          0.2462463379           -0.4816436768          -37.6992187500         27.7910156250          0.0071334839           0.0168123245           0.5980834961           -0.5338745117          
25.0000000000          0.2251281738           -0.4879455566          -36.7460937500         28.2597656250          0.0071201324           0.0161571503           0.5829772949           -0.5394897461          
26.0000000000          0.2085876465           -0.4900360107          -35.4628906250         28.4375000000          0.0070400238           0.0170783997           0.5598449707           -0.5503540039          
27.0000000000          0.1928863525           -0.4945373535          -34.4453125000         28.6210937500          0.0077543259           0.0171251297           0.5360107422           -0.5484924316          
28.0000000000          0.1782073975           -0.4927825928          -33.4355468750         28.6621093750          0.0087451935           0.0177135468           0.5194091797           -0.5576477051          
29.0000000000          0.1547851563           -0.4959106445          -32.4531250000         28.8046875000          0.0081911087           0.0182924271           0.5018310547           -0.5613098145          
30.0000000000          0.1419982910           -0.5015869141          -31.4365234375         29.1250000000          0.0086145401           0.0181112289           0.4828186035           -0.5666503906          
31.0000000000          0.1230163574           -0.5062561035          -30.5947265625         29.1728515625          0.0097742081           0.0183010101           0.4611816406           -0.5678405762          
32.0000000000          0.1063842773           -0.5016479492          -29.5673828125         29.2167968750          0.0100688934           0.0190658569           0.4436950684           -0.5704650879          
33.0000000000          0.0891418457           -0.5084228516          -28.8183593750         29.4580078125          0.0101280212           0.0191040039           0.4253234863           -0.5704650879          
34.0000000000          0.0730590820           -0.5088500977          -27.9228515625         29.2265625000          0.0101318359           0.0196847916           0.4062805176           -0.5699462891          
35.0000000000          0.0606689453           -0.5022583008          -26.8867187500         29.1376953125          0.0107860565           0.0198984146           0.3921203613           -0.5718078613          
36.0000000000          0.0472717285           -0.5069580078          -26.2949218750         29.2451171875          0.0107727051           0.0198144913           0.3753051758           -0.5731811523          
37.0000000000          0.0298767090           -0.5050659180          -25.4287109375         29.1396484375          0.0110549927           0.0204229355           0.3608093262           -0.5670776367          
38.0000000000          0.0171966553           -0.4992980957          -24.4843750000         29.0537109375          0.0115594864           0.0201301575           0.3432006836           -0.5677185059          
39.0000000000          0.0030517578           -0.5014648438          -23.9335937500         29.0742187500          0.0120677948           0.0208740234           0.3322143555           -0.5685119629          
40.0000000000          -0.0048217773          -0.4975128174          -23.1289062500         28.9414062500          0.0119724274           0.0210189819           0.3166809082           -0.5653381348          
41.0000000000          -0.0214385986          -0.4992523193          -22.5078125000         28.7919921875          0.0119142532           0.0213718414           0.3010864258           -0.5635986328          
42.0000000000          -0.0360870361          -0.4917144775          -21.7001953125         28.7128906250          0.0124225616           0.0214157104           0.2873840332           -0.5631408691          
43.0000000000          -0.0457153320          -0.4884643555          -21.0927734375         28.5800781250          0.0128803253           0.0223550797           0.2756347656           -0.5579833984          
44.0000000000          -0.0520324707          -0.4842834473          -20.4326171875         28.1796875000          0.0129642487           0.0221843719           0.2647399902           -0.5548706055          
45.0000000000          -0.0648345947          -0.4792633057          -19.8574218750         28.0742187500          0.0131177902           0.0221719742           0.2515563965           -0.5513916016          
46.0000000000          -0.0747375488          -0.4803161621          -19.3105468750         27.8974609375          0.0135250092           0.0223283768           0.2407836914           -0.5489196777          
47.0000000000          -0.0882110596          -0.4748077393          -18.6269531250         27.8085937500          0.0137367249           0.0226345062           0.2312011719           -0.5452575684          
48.0000000000          -0.0976715088          -0.4737091064          -18.1699218750         27.6455078125          0.0138835907           0.0228080750           0.2191772461           -0.5393981934          
49.0000000000          -0.1055297852          -0.4707794189          -17.6328125000         27.4804687500          0.0136413574           0.0230588913           0.2091674805           -0.5366516113          
50.0000000000          -0.1132049561          -0.4639892578          -17.1591796875         27.1455078125          0.0144128799           0.0236463547           0.1993713379           -0.5346069336          
51.0000000000          -0.1208801270          -0.4615478516          -16.7597656250         26.9453125000          0.0147342682           0.0230016708           0.1896057129           -0.5298461914          
52.0000000000          -0.1268310547          -0.4585723877          -16.1718750000         26.8349609375          0.0142059326           0.0234413147           0.1812133789           -0.5258178711          
53.0000000000          -0.1433410645          -0.4528656006          -15.6455078125         26.6562500000          0.0151348114           0.0237369537           0.1697387695           -0.5210266113          
54.0000000000          -0.1491699219          -0.4483795166          -15.1953125000         26.4443359375          0.0151700974           0.0237026215           0.1621398926           -0.5204162598          
55.0000000000          -0.1553192139          -0.4449462891          -14.8203125000         26.2109375000          0.0150222778           0.0246076584           0.1518554688           -0.5133972168          
56.0000000000          -0.1636352539          -0.4423065186          -14.4394531250         25.9492187500          0.0156431198           0.0246028900           0.1462707520           -0.5111694336          
57.0000000000          -0.1739044189          -0.4391174316          -13.9111328125         25.7548828125          0.0155553818           0.0249290466           0.1375122070           -0.5104675293          
58.0000000000          -0.1779785156          -0.4324035645          -13.6025390625         25.5576171875          0.0159063339           0.0250873566           0.1320190430           -0.5027160645          
59.0000000000          -0.1809844971          -0.4295806885          -13.2636718750         25.1943359375          0.0161790848           0.0246162415           0.1215972900           -0.4977111816          
60.0000000000          -0.1887817383          -0.4263458252          -12.8876953125         25.1083984375          0.0160055161           0.0252943039           0.1154022217           -0.4964599609          
61.0000000000          -0.1920471191          -0.4228820801          -12.5410156250         25.0146484375          0.0165243149           0.0258769989           0.1091461182           -0.4928131104          
62.0000000000          -0.2033996582          -0.4180297852          -12.0966796875         24.7851562500          0.0160427094           0.0257692337           0.1018066406           -0.4872283936          
63.0000000000          -0.2090606689          -0.4117279053          -11.7626953125         24.4218750000          0.0163774490           0.0259990692           0.0946044922           -0.4832611084          
64.0000000000          -0.2126312256          -0.4101257324          -11.5097656250         24.2519531250          0.0171871185           0.0264635086           0.0889129639           -0.4800109863          
65.0000000000          -0.2207031250          -0.4074096680          -11.1015625000         24.0820312500          0.0170583725           0.0262479782           0.0823974609           -0.4751434326          
66.0000000000          -0.2249755859          -0.4006347656          -10.8964843750         23.8710937500          0.0167322159           0.0257606506           0.0750732422           -0.4714965820          
67.0000000000          -0.2305603027          -0.4006195068          -10.6132812500         23.7373046875          0.0173282623           0.0266265869           0.0695343018           -0.4673767090          
68.0000000000          -0.2341461182          -0.3948059082          -10.3603515625         23.4941406250          0.0172357559           0.0267591476           0.0660095215           -0.4643249512          
69.0000000000          -0.2376861572          -0.3887939453          -10.0185546875         23.2919921875          0.0177383423           0.0271329880           0.0579986572           -0.4589843750          
70.0000000000          -0.2449798584          -0.3849487305          -9.7968750000          23.1181640625          0.0174551010           0.0278215408           0.0569458008           -0.4552154541          
71.0000000000          -0.2498168945          -0.3827209473          -9.5263671875          22.8320312500          0.0173902512           0.0278739929           0.0487976074           -0.4507446289          
72.0000000000          -0.2514495850          -0.3803405762          -9.3242187500          22.6562500000          0.0177574158           0.0279903412           0.0464019775           -0.4490203857          
73.0000000000          -0.2588806152          -0.3746490479          -8.9980468750          22.3720703125          0.0176372528           0.0280866623           0.0390472412           -0.4449462891          
74.0000000000          -0.2655334473          -0.3673248291          -8.7978515625          22.2685546875          0.0178337097           0.0284204483           0.0333862305           -0.4424133301          
75.0000000000          -0.2685241699          -0.3680572510          -8.4648437500          22.0634765625          0.0178375244           0.0281667709           0.0300598145           -0.4380798340          
76.0000000000          -0.2684326172          -0.3644714355          -8.4414062500          21.8613281250          0.0178413391           0.0281791687           0.0251007080           -0.4336547852          
77.0000000000          -0.2728576660          -0.3555450439          -8.1552734375          21.6748046875          0.0181283951           0.0289011002           0.0224456787           -0.4304962158          
78.0000000000          -0.2802124023          -0.3520202637          -7.8925781250          21.4580078125          0.0177307129           0.0291900635           0.0181427002           -0.4266815186          
79.0000000000          -0.2777252197          -0.3514404297          -7.7958984375          21.3378906250          0.0184850693           0.0293378830           0.0148468018           -0.4224090576          
80.0000000000          -0.2838287354          -0.3513031006          -7.5527343750          21.1992187500          0.0186271667           0.0291910172           0.0104827881           -0.4201354980          
81.0000000000          -0.2895660400          -0.3471374512          -7.3427734375          20.9824218750          0.0184192657           0.0296602249           0.0074920654           -0.4159851074          
82.0000000000          -0.2951049805          -0.3438262939          -7.1103515625          20.8310546875          0.0191860199           0.0298023224           0.0035095215           -0.4119415283          
83.0000000000          -0.2942199707          -0.3349456787          -7.0703125000          20.5820312500          0.0184993744           0.0305137634           0.0013580322           -0.4082031250          
84.0000000000          -0.2967834473          -0.3320617676          -6.8447265625          20.4169921875          0.0187797546           0.0306901932           -0.0035247803          -0.4060211182          
85.0000000000          -0.3002777100          -0.3306427002          -6.6416015625          20.2626953125          0.0185117722           0.0309743881           -0.0070495605          -0.4025268555          
86.0000000000          -0.3045043945          -0.3261566162          -6.4550781250          20.0683593750          0.0192985535           0.0312595367           -0.0107116699          -0.4006195068          
87.0000000000          -0.3095550537          -0.3251800537          -6.3574218750          19.9130859375          0.0187873840           0.0309762955           -0.0145263672          -0.3955230713          
88.0000000000          -0.3111419678          -0.3219146729          -6.2265625000          19.7480468750          0.0188941956           0.0313014984           -0.0162200928          -0.3929748535          
89.0000000000          -0.3115386963          -0.3179321289          -6.0097656250          19.5410156250          0.0193052292           0.0309877396           -0.0207214355          -0.3895263672          
90.0000000000          -0.3152008057          -0.3107147217          -5.8906250000          19.3876953125          0.0195617676           0.0320816040           -0.0229034424          -0.3868865967          
91.0000000000          -0.3163146973          -0.3135223389          -5.7031250000          19.1943359375          0.0190868378           0.0318584442           -0.0248870850          -0.3837585449          
92.0000000000          -0.3178100586          -0.3064422607          -5.5966796875          19.0498046875          0.0192871094           0.0323123932           -0.0285491943          -0.3820953369          
93.0000000000          -0.3216705322          -0.3068237305          -5.5556640625          18.9550781250          0.0196170807           0.0329341888           -0.0319366455          -0.3777313232          
94.0000000000          -0.3215484619          -0.3042297363          -5.3369140625          18.7412109375          0.0200080872           0.0331840515           -0.0334930420          -0.3756103516          
95.0000000000          -0.3276672363          -0.3011779785          -5.2441406250          18.6220703125          0.0196208954           0.0324039459           -0.0373382568          -0.3731536865          
