# MHz S RI R 50 
! S-Parameters data 
! Freq   reS11   imS11   reS21   imS21   reS12   imS12   reS22   imS22 
0.3000000000           -0.3291778564          0.0010986328           0.6719055176           0.0021057129           0.6713562012           0.0010986328           -0.3301544189          -0.0013275146          
15.2985000000          -0.3297119141          -0.0006561279          0.6729125977           -0.0025939941          0.6723937988           -0.0007934570          -0.3298797607          -0.0001068115          
30.2970000000          -0.3298034668          -0.0001373291          0.6718444824           -0.0017395020          0.6724548340           -0.0023498535          -0.3294525146          -0.0006408691          
45.2955000000          -0.3292999268          -0.0002441406          0.6714477539           -0.0025329590          0.6718444824           -0.0030212402          -0.3286285400          -0.0006256104          
60.2940000000          -0.3288726807          -0.0006256104          0.6712341309           -0.0033264160          0.6715087891           -0.0036010742          -0.3278503418          -0.0011291504          
75.2925000000          -0.3287048340          -0.0014953613          0.6712646484           -0.0033569336          0.6714477539           -0.0037841797          -0.3276062012          -0.0017089844          
90.2910000000          -0.3283538818          -0.0018920898          0.6712341309           -0.0040588379          0.6716918945           -0.0044555664          -0.3277435303          -0.0021667480          
105.2895000000         -0.3281860352          -0.0020599365          0.6713867188           -0.0042724609          0.6716003418           -0.0048828125          -0.3278045654          -0.0023498535          
120.2880000000         -0.3280029297          -0.0018615723          0.6716918945           -0.0051879883          0.6723022461           -0.0054931641          -0.3281402588          -0.0023651123          
135.2865000000         -0.3274383545          -0.0013427734          0.6719970703           -0.0058288574          0.6724243164           -0.0065612793          -0.3283843994          -0.0025329590          
150.2850000000         -0.3270568848          -0.0010833740          0.6723022461           -0.0066223145          0.6722717285           -0.0071716309          -0.3288116455          -0.0023193359          
165.2835000000         -0.3271331787          -0.0005035400          0.6722412109           -0.0075988770          0.6722412109           -0.0080261230          -0.3289337158          -0.0021057129          
180.2820000000         -0.3270416260          -0.0001220703          0.6721191406           -0.0084533691          0.6724548340           -0.0089721680          -0.3292388916          -0.0021514893          
195.2805000000         -0.3270721436          0.0004425049           0.6724243164           -0.0093078613          0.6724243164           -0.0100402832          -0.3289642334          -0.0019836426          
210.2790000000         -0.3274688721          0.0005798340           0.6719970703           -0.0103454590          0.6721496582           -0.0110168457          -0.3288116455          -0.0023345947          
225.2775000000         -0.3278503418          0.0004730225           0.6719360352           -0.0111389160          0.6718750000           -0.0119323730          -0.3282775879          -0.0025482178          
240.2760000000         -0.3284301758          0.0000305176           0.6715698242           -0.0120239258          0.6712646484           -0.0123901367          -0.3277282715          -0.0029296875          
255.2745000000         -0.3290557861          -0.0008087158          0.6709899902           -0.0124511719          0.6712951660           -0.0127258301          -0.3272552490          -0.0038299561          
270.2730000000         -0.3298339844          -0.0020904541          0.6713256836           -0.0127258301          0.6713867188           -0.0132141113          -0.3269042969          -0.0043029785          
285.2715000000         -0.3305511475          -0.0032043457          0.6712646484           -0.0133361816          0.6712036133           -0.0138549805          -0.3267059326          -0.0047302246          
300.2700000000         -0.3305358887          -0.0039672852          0.6713256836           -0.0143432617          0.6711120605           -0.0151672363          -0.3264312744          -0.0050964355          
315.2685000000         -0.3296661377          -0.0047302246          0.6709594727           -0.0148010254          0.6708374023           -0.0155029297          -0.3264160156          -0.0058593750          
330.2670000000         -0.3284606934          -0.0056152344          0.6712341309           -0.0148620605          0.6711425781           -0.0155944824          -0.3268585205          -0.0064239502          
345.2655000000         -0.3272705078          -0.0058746338          0.6714477539           -0.0151062012          0.6715698242           -0.0159606934          -0.3274688721          -0.0069274902          
360.2640000000         -0.3260345459          -0.0056457520          0.6719970703           -0.0157775879          0.6720275879           -0.0166320801          -0.3285064697          -0.0068206787          
375.2625000000         -0.3250732422          -0.0050659180          0.6723632813           -0.0169067383          0.6726379395           -0.0175476074          -0.3293762207          -0.0065765381          
390.2610000000         -0.3242950439          -0.0038757324          0.6729125977           -0.0179443359          0.6728515625           -0.0185241699          -0.3297424316          -0.0065765381          
405.2595000000         -0.3242034912          -0.0019683838          0.6729736328           -0.0188598633          0.6728820801           -0.0195922852          -0.3300933838          -0.0063171387          
420.2580000000         -0.3248596191          -0.0003509521          0.6730651855           -0.0199584961          0.6731872559           -0.0210571289          -0.3305511475          -0.0059356689          
435.2565000000         -0.3262481689          0.0013580322           0.6730041504           -0.0213317871          0.6733703613           -0.0223388672          -0.3302612305          -0.0055236816          
450.2550000000         -0.3277282715          0.0027770996           0.6731567383           -0.0228271484          0.6732788086           -0.0238037109          -0.3299255371          -0.0049438477          
465.2535000000         -0.3287048340          0.0032958984           0.6720581055           -0.0239257813          0.6724243164           -0.0251464844          -0.3289489746          -0.0045471191          
480.2520000000         -0.3304138184          0.0022430420           0.6709899902           -0.0249023438          0.6713562012           -0.0258178711          -0.3281707764          -0.0050811768          
495.2505000000         -0.3317413330          0.0007629395           0.6701049805           -0.0255126953          0.6707153320           -0.0264282227          -0.3276824951          -0.0058898926          
510.2490000000         -0.3326416016          -0.0014495850          0.6695251465           -0.0256958008          0.6699218750           -0.0267028809          -0.3270111084          -0.0067749023          
525.2475000000         -0.3327789307          -0.0044403076          0.6692199707           -0.0252380371          0.6700134277           -0.0264587402          -0.3270263672          -0.0080261230          
540.2460000000         -0.3323669434          -0.0071411133          0.6694641113           -0.0252685547          0.6698913574           -0.0263671875          -0.3273468018          -0.0091705322          
555.2445000000         -0.3312835693          -0.0095825195          0.6701660156           -0.0254211426          0.6699218750           -0.0264892578          -0.3280792236          -0.0103454590          
570.2430000000         -0.3293151855          -0.0110015869          0.6705627441           -0.0260925293          0.6708679199           -0.0267333984          -0.3288269043          -0.0114135742          
585.2415000000         -0.3269500732          -0.0114288330          0.6711730957           -0.0269775391          0.6715393066           -0.0279846191          -0.3302001953          -0.0120239258          
600.2400000000         -0.3245849609          -0.0107727051          0.6719055176           -0.0280456543          0.6725463867           -0.0287780762          -0.3314514160          -0.0121612549          
615.2385000000         -0.3227233887          -0.0088653564          0.6723022461           -0.0292053223          0.6731262207           -0.0300292969          -0.3328704834          -0.0115356445          
630.2370000000         -0.3213806152          -0.0060882568          0.6728210449           -0.0303955078          0.6728515625           -0.0317077637          -0.3333892822          -0.0098876953          
645.2355000000         -0.3213195801          -0.0027923584          0.6729125977           -0.0318908691          0.6734924316           -0.0330810547          -0.3336181641          -0.0090026855          
660.2340000000         -0.3221740723          0.0003051758           0.6725463867           -0.0333862305          0.6732177734           -0.0347900391          -0.3331909180          -0.0077209473          
675.2325000000         -0.3242187500          0.0027923584           0.6715698242           -0.0346069336          0.6723327637           -0.0361633301          -0.3326110840          -0.0068206787          
690.2310000000         -0.3270721436          0.0046539307           0.6710815430           -0.0357055664          0.6715393066           -0.0373840332          -0.3319549561          -0.0066223145          
705.2295000000         -0.3300018311          0.0044860840           0.6697692871           -0.0363159180          0.6706542969           -0.0380249023          -0.3308105469          -0.0065765381          
720.2280000000         -0.3330688477          0.0032501221           0.6692810059           -0.0365295410          0.6696472168           -0.0383300781          -0.3298034668          -0.0072631836          
735.2265000000         -0.3357849121          0.0005798340           0.6683959961           -0.0367736816          0.6686401367           -0.0384826660          -0.3290100098          -0.0085144043          
750.2250000000         -0.3373260498          -0.0028839111          0.6681213379           -0.0373229980          0.6682434082           -0.0387573242          -0.3287353516          -0.0103149414          
765.2235000000         -0.3374481201          -0.0063781738          0.6672973633           -0.0372924805          0.6679077148           -0.0385131836          -0.3291015625          -0.0124664307          
780.2220000000         -0.3362274170          -0.0102691650          0.6673889160           -0.0370788574          0.6679992676           -0.0381469727          -0.3298034668          -0.0145568848          
795.2205000000         -0.3338928223          -0.0134277344          0.6676025391           -0.0370483398          0.6687622070           -0.0384826660          -0.3315582275          -0.0154418945          
810.2190000000         -0.3308410645          -0.0153808594          0.6687316895           -0.0377807617          0.6695861816           -0.0391235352          -0.3330993652          -0.0160522461          
825.2175000000         -0.3272857666          -0.0154418945          0.6693115234           -0.0388488770          0.6705627441           -0.0397338867          -0.3344116211          -0.0156707764          
840.2160000000         -0.3237304688          -0.0137634277          0.6703796387           -0.0395507813          0.6713256836           -0.0412292480          -0.3355255127          -0.0149841309          
855.2145000000         -0.3210754395          -0.0106048584          0.6707763672           -0.0415344238          0.6719055176           -0.0427856445          -0.3361968994          -0.0139770508          
870.2130000000         -0.3194580078          -0.0062561035          0.6708374023           -0.0433349609          0.6723022461           -0.0450439453          -0.3366699219          -0.0119323730          
885.2115000000         -0.3192138672          -0.0015563965          0.6706542969           -0.0453491211          0.6713256836           -0.0465698242          -0.3367309570          -0.0099792480          
900.2100000000         -0.3209228516          0.0027770996           0.6697387695           -0.0469970703          0.6702880859           -0.0484008789          -0.3361511230          -0.0084838867          
915.2085000000         -0.3235168457          0.0058898926           0.6682739258           -0.0480957031          0.6693115234           -0.0494995117          -0.3352661133          -0.0074157715          
930.2070000000         -0.3268432617          0.0075073242           0.6672363281           -0.0482177734          0.6680908203           -0.0499877930          -0.3339843750          -0.0072326660          
945.2055000000         -0.3306579590          0.0073547363           0.6662597656           -0.0483398438          0.6669921875           -0.0501098633          -0.3323364258          -0.0081481934          
960.2040000000         -0.3339233398          0.0050048828           0.6649780273           -0.0481567383          0.6663208008           -0.0502319336          -0.3315124512          -0.0097045898          
975.2025000000         -0.3365783691          0.0007629395           0.6645507813           -0.0479125977          0.6657104492           -0.0499267578          -0.3311157227          -0.0120239258          
990.2010000000         -0.3385314941          -0.0038604736          0.6641235352           -0.0477600098          0.6654663086           -0.0496826172          -0.3313446045          -0.0140838623          
1005.1995000000        -0.3388671875          -0.0092010498          0.6640319824           -0.0475158691          0.6655578613           -0.0497131348          -0.3322448730          -0.0161437988          
1020.1980000000        -0.3374328613          -0.0138549805          0.6641845703           -0.0474243164          0.6654663086           -0.0496826172          -0.3331604004          -0.0179443359          
1035.1965000000        -0.3341369629          -0.0169982910          0.6642456055           -0.0480346680          0.6658935547           -0.0498657227          -0.3347778320          -0.0192565918          
1050.1950000000        -0.3304290771          -0.0187683105          0.6651916504           -0.0480957031          0.6665039063           -0.0504150391          -0.3361663818          -0.0194396973          
1065.1935000000        -0.3260345459          -0.0187530518          0.6655273438           -0.0487976074          0.6668395996           -0.0507507324          -0.3379669189          -0.0189666748          
1080.1920000000        -0.3223571777          -0.0164337158          0.6661376953           -0.0499267578          0.6673889160           -0.0514526367          -0.3398132324          -0.0176086426          
1095.1905000000        -0.3194274902          -0.0123596191          0.6666870117           -0.0513610840          0.6675109863           -0.0526428223          -0.3412933350          -0.0153808594          
1110.1890000000        -0.3177795410          -0.0075531006          0.6670837402           -0.0528259277          0.6686096191           -0.0536499023          -0.3413391113          -0.0127868652          
1125.1875000000        -0.3178100586          -0.0022125244          0.6669921875           -0.0542297363          0.6690368652           -0.0553588867          -0.3407287598          -0.0110015869          
1140.1860000000        -0.3196258545          0.0021820068           0.6665039063           -0.0557250977          0.6687622070           -0.0570678711          -0.3393554688          -0.0092163086          
1155.1845000000        -0.3228149414          0.0054931641           0.6661987305           -0.0567016602          0.6688232422           -0.0585937500          -0.3382568359          -0.0092468262          
1170.1830000000        -0.3273315430          0.0068664551           0.6646728516           -0.0576171875          0.6679077148           -0.0598144531          -0.3366699219          -0.0098876953          
1185.1815000000        -0.3323364258          0.0065155029           0.6641235352           -0.0577392578          0.6667785645           -0.0606079102          -0.3358001709          -0.0111999512          
1200.1800000000        -0.3366241455          0.0040588379           0.6631164551           -0.0573730469          0.6654052734           -0.0608215332          -0.3354339600          -0.0130615234          
1215.1785000000        -0.3401336670          0.0000152588           0.6622009277           -0.0574035645          0.6645202637           -0.0603332520          -0.3351135254          -0.0154724121          
1230.1770000000        -0.3419494629          -0.0049438477          0.6614990234           -0.0567016602          0.6638183594           -0.0592956543          -0.3357238770          -0.0182800293          
1245.1755000000        -0.3425903320          -0.0101776123          0.6621398926           -0.0565185547          0.6637573242           -0.0589294434          -0.3374328613          -0.0204772949          
1260.1740000000        -0.3403472900          -0.0150756836          0.6628112793           -0.0559997559          0.6646423340           -0.0579528809          -0.3397369385          -0.0218505859          
1275.1725000000        -0.3371429443          -0.0184326172          0.6637573242           -0.0562438965          0.6660461426           -0.0577392578          -0.3418273926          -0.0217132568          
1290.1710000000        -0.3328704834          -0.0200195313          0.6646728516           -0.0572204590          0.6677551270           -0.0586547852          -0.3438720703          -0.0211181641          
1305.1695000000        -0.3280944824          -0.0194396973          0.6660766602           -0.0580749512          0.6689147949           -0.0598144531          -0.3453063965          -0.0192871094          
1320.1680000000        -0.3237915039          -0.0165710449          0.6671447754           -0.0599670410          0.6709289551           -0.0615844727          -0.3468017578          -0.0170440674          
1335.1665000000        -0.3205718994          -0.0121154785          0.6681823730           -0.0621337891          0.6716308594           -0.0644531250          -0.3474121094          -0.0139160156          
1350.1650000000        -0.3184967041          -0.0063476563          0.6681823730           -0.0647888184          0.6718139648           -0.0673217773          -0.3475036621          -0.0113677979          
1365.1635000000        -0.3183593750          -0.0002746582          0.6679687500           -0.0670776367          0.6713867188           -0.0701293945          -0.3464355469          -0.0090942383          
1380.1620000000        -0.3199768066          0.0050048828           0.6663208008           -0.0692138672          0.6698608398           -0.0725708008          -0.3452758789          -0.0075378418          
1395.1605000000        -0.3233337402          0.0091857910           0.6651611328           -0.0716552734          0.6682128906           -0.0741577148          -0.3437194824          -0.0070190430          
1410.1590000000        -0.3275299072          0.0114593506           0.6630249023           -0.0729675293          0.6658020020           -0.0749816895          -0.3422851563          -0.0077209473          
