#  HZ   S   RI   R     50.00 
! Rohde & Schwarz ZVA40 2Ports - Version 3.12 - 1145.1110k40 SN: 100360
! Date: 2019-07-29 15:56:28
! Measurement: S11 
! 
 1.000000000000000E8     4.262505769729614E-1  -6.282106041908264E-1  
 1.005000000000000E8     2.770063579082489E-1  -7.088481783866882E-1  
 1.010000000000000E8     1.074831783771515E-1  -7.493172883987427E-1  
 1.015000000000000E8    -6.193993613123894E-2  -7.525467872619629E-1  
 1.020000000000000E8    -2.306231856346130E-1  -7.133730649948120E-1  
 1.025000000000000E8    -3.851720988750458E-1  -6.359179019927979E-1  
 1.030000000000000E8    -5.112241506576538E-1  -5.293304920196533E-1  
 1.035000000000000E8    -6.098732948303223E-1  -3.915091156959534E-1  
 1.040000000000000E8    -6.744045615196228E-1  -2.386161983013153E-1  
 1.045000000000000E8    -6.990536451339722E-1  -8.110243827104569E-2  
 1.050000000000000E8    -6.895841956138611E-1   8.111327886581421E-2  
 1.055000000000000E8    -6.478437185287476E-1   2.340174466371536E-1  
 1.060000000000000E8    -5.752052664756775E-1   3.688202500343323E-1  
 1.065000000000000E8    -4.774244725704193E-1   4.860631525516510E-1  
 1.070000000000000E8    -3.539978861808777E-1   5.838351249694824E-1  
 1.075000000000000E8    -2.099568098783493E-1   6.526340246200562E-1  
 1.080000000000000E8    -5.185043066740036E-2   6.846714019775391E-1  
 1.085000000000000E8     1.063087359070778E-1   6.765314340591431E-1  
 1.090000000000000E8     2.592763006687164E-1   6.334459185600281E-1  
 1.095000000000000E8     3.957944810390472E-1   5.602839589118958E-1  
 1.100000000000000E8     5.133131146430969E-1   4.543399214744568E-1  
 1.105000000000000E8     6.035123467445374E-1   3.283910751342773E-1  
 1.110000000000000E8     6.634587645530701E-1   1.847160458564758E-1  
 1.115000000000000E8     6.891270279884338E-1   3.404069691896439E-2  
 1.120000000000000E8     6.834753155708313E-1  -1.235286444425583E-1  
 1.125000000000000E8     6.397715806961060E-1  -2.735608816146851E-1  
 1.130000000000000E8     5.675160884857178E-1  -4.095143079757690E-1  
 1.135000000000000E8     4.610155224800110E-1  -5.256819128990173E-1  
 1.140000000000000E8     3.313646316528320E-1  -6.171314120292664E-1  
 1.145000000000000E8     1.853539198637009E-1  -6.749535202980042E-1  
 1.150000000000000E8     2.835752815008164E-2  -6.990407109260559E-1  
 1.155000000000000E8    -1.311728358268738E-1  -6.860601902008057E-1  
 1.160000000000000E8    -2.829349339008331E-1  -6.359508037567139E-1  
 1.165000000000000E8    -4.191344678401947E-1  -5.534354448318481E-1  
 1.170000000000000E8    -5.318444967269898E-1  -4.400558769702911E-1  
 1.175000000000000E8    -6.146338582038879E-1  -3.030110001564026E-1  
 1.180000000000000E8    -6.674697995185852E-1  -1.505297422409058E-1  
 1.185000000000000E8    -6.787182092666626E-1   1.257867831736803E-2  
 1.190000000000000E8    -6.547082066535950E-1   1.683972179889679E-1  
 1.195000000000000E8    -5.892593860626221E-1   3.196454048156738E-1  
 1.200000000000000E8    -4.893372058868408E-1   4.454648196697235E-1  
 1.205000000000000E8    -3.674019575119019E-1   5.490737557411194E-1  
 1.210000000000000E8    -2.273376584053040E-1   6.111230254173279E-1  
 1.215000000000000E8    -7.476584613323212E-2   6.436390280723572E-1  
 1.220000000000000E8     7.918910682201386E-2   6.391327381134033E-1  
 1.225000000000000E8     2.272319942712784E-1   6.006095409393311E-1  
 1.230000000000000E8     3.588034510612488E-1   5.273939371109009E-1  
 1.235000000000000E8     4.703963994979858E-1   4.284984171390533E-1  
 1.240000000000000E8     5.544846057891846E-1   3.066969811916351E-1  
 1.245000000000000E8     6.082810163497925E-1   1.702190041542053E-1  
 1.250000000000000E8     6.286341547966003E-1   2.417286112904549E-2  
 1.255000000000000E8     6.120954155921936E-1  -1.203492283821106E-1  
 1.260000000000000E8     5.665445923805237E-1  -2.552568614482880E-1  
 1.265000000000000E8     4.905496537685394E-1  -3.726659417152405E-1  
 1.270000000000000E8     3.890541493892670E-1  -4.720732569694519E-1  
 1.275000000000000E8     2.687298655509949E-1  -5.464711189270020E-1  
 1.280000000000000E8     1.346720308065414E-1  -5.901072025299072E-1  
 1.285000000000000E8    -8.625201880931854E-3  -6.006349325180054E-1  
 1.290000000000000E8    -1.509899497032166E-1  -5.742706656455994E-1  
 1.295000000000000E8    -2.837230861186981E-1  -5.126187205314636E-1  
 1.300000000000000E8    -3.952412903308868E-1  -4.185241162776947E-1  
 1.305000000000000E8    -4.790987372398377E-1  -2.997669577598572E-1  
 1.310000000000000E8    -5.310642719268799E-1  -1.633462458848953E-1  
 1.315000000000000E8    -5.443161129951477E-1  -2.021323330700398E-2  
 1.320000000000000E8    -5.187662839889526E-1   1.232424676418304E-1  
 1.325000000000000E8    -4.583982527256012E-1   2.562272548675537E-1  
 1.330000000000000E8    -3.620448708534241E-1   3.693633675575256E-1  
 1.335000000000000E8    -2.369362264871597E-1   4.550147056579590E-1  
 1.340000000000000E8    -8.935670554637909E-2   5.022630095481873E-1  
 1.345000000000000E8     7.224181294441223E-2   4.991351068019867E-1  
 1.350000000000000E8     2.276025861501694E-1   4.431447982788086E-1  
 1.355000000000000E8     3.544425964355469E-1   3.364891409873962E-1  
 1.360000000000000E8     4.337414801120758E-1   1.916272640228272E-1  
 1.365000000000000E8     4.553365707397461E-1   3.587646409869194E-2  
 1.370000000000000E8     4.240933060646057E-1  -1.114950478076935E-1  
 1.375000000000000E8     3.503722846508026E-1  -2.362490147352219E-1  
 1.380000000000000E8     2.413139641284943E-1  -3.245519101619721E-1  
 1.385000000000000E8     1.070305481553078E-1  -3.694263994693756E-1  
 1.390000000000000E8    -2.974453382194042E-2  -3.600808084011078E-1  
 1.395000000000000E8    -1.476687937974930E-1  -3.012160658836365E-1  
 1.400000000000000E8    -2.313699573278427E-1  -2.031487077474594E-1  
 1.405000000000000E8    -2.677271366119385E-1  -8.334352076053619E-2  
 1.410000000000000E8    -2.454124540090561E-1   3.508027270436287E-2  
 1.415000000000000E8    -1.759526431560516E-1   1.249585971236229E-1  
 1.420000000000000E8    -7.985489815473557E-2   1.632683575153351E-1  
 1.425000000000000E8     5.338201764971018E-3   1.491615772247315E-1  
 1.430000000000000E8     5.900742858648300E-2   1.046197265386581E-1  
 1.435000000000000E8     7.365315407514572E-2   4.943967238068581E-2  
 1.440000000000000E8     4.493976011872292E-2   6.630448158830404E-3  
 1.445000000000000E8    -1.527339871972799E-2   1.664403825998306E-2  
 1.450000000000000E8    -5.204337462782860E-2   1.072277203202248E-1  
 1.455000000000000E8     1.891468279063702E-2   2.531904876232147E-1  
 1.460000000000000E8     2.497144341468811E-1   3.259461820125580E-1  
 1.465000000000000E8     5.200737714767456E-1   1.809663027524948E-1  
 1.470000000000000E8     6.319481134414673E-1  -1.274170279502869E-1  
 1.475000000000000E8     5.447474718093872E-1  -4.297109842300415E-1  
 1.480000000000000E8     3.396385908126831E-1  -6.319847702980042E-1  
 1.485000000000000E8     9.568606317043304E-2  -7.239822745323181E-1  
 1.490000000000000E8    -1.467056125402451E-1  -7.223522663116455E-1  
 1.495000000000000E8    -3.619916141033173E-1  -6.447909474372864E-1  
 1.500000000000000E8    -5.328934788703919E-1  -5.097239613533020E-1  
 1.505000000000000E8    -6.552723646163940E-1  -3.387581706047058E-1  
 1.510000000000000E8    -7.208226919174194E-1  -1.466192752122879E-1  
 1.515000000000000E8    -7.308051586151123E-1   5.021164938807488E-2  
 1.520000000000000E8    -6.872430443763733E-1   2.374061495065689E-1  
 1.525000000000000E8    -5.995324850082398E-1   4.062259793281555E-1  
 1.530000000000000E8    -4.729964435100555E-1   5.442660450935364E-1  
 1.535000000000000E8    -3.162120580673218E-1   6.434484720230103E-1  
 1.540000000000000E8    -1.423475593328476E-1   6.991596221923828E-1  
 1.545000000000000E8     3.817579895257950E-2   7.104991078376770E-1  
 1.550000000000000E8     2.150415033102036E-1   6.773312091827393E-1  
 1.555000000000000E8     3.768454492092133E-1   6.014299392700195E-1  
 1.560000000000000E8     5.163605213165283E-1   4.877645075321198E-1  
 1.565000000000000E8     6.201331019401550E-1   3.462323248386383E-1  
 1.570000000000000E8     6.863234043121338E-1   1.841143667697907E-1  
 1.575000000000000E8     7.126385569572449E-1   1.099280361086130E-2  
 1.580000000000000E8     6.949505805969238E-1  -1.620263010263443E-1  
 1.585000000000000E8     6.386137604713440E-1  -3.234672844409943E-1  
 1.590000000000000E8     5.456635951995850E-1  -4.683817028999329E-1  
 1.595000000000000E8     4.226633906364441E-1  -5.836791396141052E-1  
 1.600000000000000E8     2.744693756103516E-1  -6.696875691413879E-1  
 1.605000000000000E8     1.131906360387802E-1  -7.146347761154175E-1  
 1.610000000000000E8    -5.347889661788940E-2  -7.216960787773132E-1  
 1.615000000000000E8    -2.138425558805466E-1  -6.930825710296631E-1  
 1.620000000000000E8    -3.657965660095215E-1  -6.259519457817078E-1  
 1.625000000000000E8    -4.965227246284485E-1  -5.273506641387940E-1  
 1.630000000000000E8    -6.000614166259766E-1  -4.036233723163605E-1  
 1.635000000000000E8    -6.747144460678101E-1  -2.604721784591675E-1  
 1.640000000000000E8    -7.121245861053467E-1  -1.041631326079369E-1  
 1.645000000000000E8    -7.164434790611267E-1   5.768566951155663E-2  
 1.650000000000000E8    -6.837808489799500E-1   2.123507708311081E-1  
 1.655000000000000E8    -6.158199906349182E-1   3.589582145214081E-1  
 1.660000000000000E8    -5.192681550979614E-1   4.844828844070435E-1  
 1.665000000000000E8    -3.958252072334290E-1   5.851465463638306E-1  
 1.670000000000000E8    -2.542757391929627E-1   6.571965217590332E-1  
 1.675000000000000E8    -9.826539456844330E-2   6.966707110404968E-1  
 1.680000000000000E8     6.143311038613319E-2   6.985617876052856E-1  
 1.685000000000000E8     2.183939665555954E-1   6.642765998840332E-1  
 1.690000000000000E8     3.620874285697937E-1   5.961884856224060E-1  
 1.695000000000000E8     4.912679791450501E-1   4.975166022777557E-1  
 1.700000000000000E8     5.918632149696350E-1   3.699577748775482E-1  
 1.705000000000000E8     6.623318791389465E-1   2.233143150806427E-1  
 1.710000000000000E8     6.963859796524048E-1   6.610872596502304E-2  
 1.715000000000000E8     6.938692331314087E-1  -9.497224539518356E-2  
 1.720000000000000E8     6.558858752250671E-1  -2.528609633445740E-1  
 1.725000000000000E8     5.820097327232361E-1  -3.980503380298615E-1  
 1.730000000000000E8     4.770050048828125E-1  -5.216118097305298E-1  
 1.735000000000000E8     3.465117514133453E-1  -6.190617084503174E-1  
 1.740000000000000E8     1.996123939752579E-1  -6.827729344367981E-1  
 1.745000000000000E8     4.113615676760674E-2  -7.116517424583435E-1  
 1.750000000000000E8    -1.164087206125259E-1  -7.044717073440552E-1  
 1.755000000000000E8    -2.685726284980774E-1  -6.617663502693176E-1  
 1.760000000000000E8    -4.066258668899536E-1  -5.887103676795960E-1  
 1.765000000000000E8    -5.236508846282959E-1  -4.881605207920075E-1  
 1.770000000000000E8    -6.168708205223084E-1  -3.647015988826752E-1  
 1.775000000000000E8    -6.806986331939697E-1  -2.268872708082199E-1  
 1.780000000000000E8    -7.123853564262390E-1  -7.797554135322571E-2  
 1.785000000000000E8    -7.111656665802002E-1   7.321412861347199E-2  
 1.790000000000000E8    -6.806047558784485E-1   2.198895514011383E-1  
 1.795000000000000E8    -6.182194352149963E-1   3.547576665878296E-1  
 1.800000000000000E8    -5.301173329353333E-1   4.758695363998413E-1  
 1.805000000000000E8    -4.209294319152832E-1   5.745978951454163E-1  
 1.810000000000000E8    -2.930608987808228E-1   6.478391289710999E-1  
 1.815000000000000E8    -1.509120613336563E-1   6.946658492088318E-1  
 1.820000000000000E8    -2.791681326925755E-3   7.090984582901001E-1  
 1.825000000000000E8     1.455141752958298E-1   6.943441629409790E-1  
 1.830000000000000E8     2.886870503425598E-1   6.462749242782593E-1  
 1.835000000000000E8     4.204383194446564E-1   5.693572759628296E-1  
 1.840000000000000E8     5.313047170639038E-1   4.654711484909058E-1  
 1.845000000000000E8     6.194244623184204E-1   3.400638699531555E-1  
 1.850000000000000E8     6.771321296691895E-1   1.979752779006958E-1  
 1.855000000000000E8     7.027890682220459E-1   4.511081799864769E-2  
 1.860000000000000E8     6.933007836341858E-1  -1.093487292528153E-1  
 1.865000000000000E8     6.521435379981995E-1  -2.586154043674469E-1  
 1.870000000000000E8     5.777050256729126E-1  -3.970589041709900E-1  
 1.875000000000000E8     4.745064973831177E-1  -5.147442221641541E-1  
 1.880000000000000E8     3.477815687656403E-1  -6.059048771858215E-1  
 1.885000000000000E8     2.048799395561218E-1  -6.677755117416382E-1  
 1.890000000000000E8     5.123790353536606E-2  -6.944691538810730E-1  
 1.895000000000000E8    -1.024038419127464E-1  -6.881491541862488E-1  
 1.900000000000000E8    -2.521522939205170E-1  -6.455069184303284E-1  
 1.905000000000000E8    -3.850449621677399E-1  -5.743620991706848E-1  
 1.910000000000000E8    -5.008984804153442E-1  -4.762062430381775E-1  
 1.915000000000000E8    -5.905557870864868E-1  -3.542554974555969E-1  
 1.920000000000000E8    -6.537684798240662E-1  -2.195084393024445E-1  
 1.925000000000000E8    -6.851652860641480E-1  -7.308566570281982E-2  
 1.930000000000000E8    -6.833851933479309E-1   7.502077519893646E-2  
 1.935000000000000E8    -6.503924727439880E-1   2.183483690023422E-1  
 1.940000000000000E8    -5.882260203361511E-1   3.503449261188507E-1  
 1.945000000000000E8    -5.000736713409424E-1   4.670830965042114E-1  
 1.950000000000000E8    -3.907976746559143E-1   5.591302514076233E-1  
 1.955000000000000E8    -2.646032273769379E-1   6.305223703384399E-1  
 1.960000000000000E8    -1.259956508874893E-1   6.695365905761719E-1  
 1.965000000000000E8     1.830608770251274E-2   6.813194155693054E-1  
 1.970000000000000E8     1.632244735956192E-1   6.622485518455505E-1  
 1.975000000000000E8     3.010299503803253E-1   6.124058961868286E-1  
 1.980000000000000E8     4.259221851825714E-1   5.338363647460938E-1  
 1.985000000000000E8     5.301087498664856E-1   4.288142621517181E-1  
 1.990000000000000E8     6.107189655303955E-1   3.051339387893677E-1  
 1.995000000000000E8     6.615249514579773E-1   1.638240218162537E-1  
 2.000000000000000E8     6.815732121467590E-1   1.421883795410395E-2  
