#  HZ   S   RI   R     50.00 
! Rohde & Schwarz ZVA40 2Ports - Version 3.12 - 1145.1110k40 SN: 100360
! Date: 2019-07-29 15:10:09
! Measurement: S11 
! 
 1.000000000000000E8     2.933059632778168E-1  -7.114124298095703E-1  
 1.005000000000000E8     1.292947977781296E-1  -7.593464255332947E-1  
 1.010000000000000E8    -4.021907225251198E-2  -7.671310305595398E-1  
 1.015000000000000E8    -2.110939472913742E-1  -7.324502468109131E-1  
 1.020000000000000E8    -3.730387389659882E-1  -6.642168164253235E-1  
 1.025000000000000E8    -5.100083947181702E-1  -5.606585144996643E-1  
 1.030000000000000E8    -6.180899143218994E-1  -4.270520806312561E-1  
 1.035000000000000E8    -6.959154605865479E-1  -2.751771807670593E-1  
 1.040000000000000E8    -7.337349057197571E-1  -1.087558567523956E-1  
 1.045000000000000E8    -7.342566251754761E-1   6.607074290513992E-2  
 1.050000000000000E8    -6.959621906280518E-1   2.343934476375580E-1  
 1.055000000000000E8    -6.196797490119934E-1   3.873605430126190E-1  
 1.060000000000000E8    -5.122881531715393E-1   5.201036930084229E-1  
 1.065000000000000E8    -3.752290010452271E-1   6.229595541954041E-1  
 1.070000000000000E8    -2.179854065179825E-1   6.883354187011719E-1  
 1.075000000000000E8    -5.442806333303452E-2   7.240648865699768E-1  
 1.080000000000000E8     1.149310916662216E-1   7.146075963973999E-1  
 1.085000000000000E8     2.740285694599152E-1   6.661856770515442E-1  
 1.090000000000000E8     4.178323745727539E-1   5.867203474044800E-1  
 1.095000000000000E8     5.419477224349976E-1   4.771251976490021E-1  
 1.100000000000000E8     6.351364850997925E-1   3.436414003372192E-1  
 1.105000000000000E8     6.955661773681641E-1   1.928899288177490E-1  
 1.110000000000000E8     7.216867804527283E-1   3.197053819894791E-2  
 1.115000000000000E8     7.122608423233032E-1  -1.277999877929688E-1  
 1.120000000000000E8     6.681457757949829E-1  -2.870802581310272E-1  
 1.125000000000000E8     5.888609886169434E-1  -4.272550344467163E-1  
 1.130000000000000E8     4.776130914688110E-1  -5.490298867225647E-1  
 1.135000000000000E8     3.459655642509460E-1  -6.402766704559326E-1  
 1.140000000000000E8     1.925092637538910E-1  -6.990218758583069E-1  
 1.145000000000000E8     3.229450434446335E-2  -7.214033603668213E-1  
 1.150000000000000E8    -1.305106580257416E-1  -7.056949138641357E-1  
 1.155000000000000E8    -2.829597294330597E-1  -6.547281742095947E-1  
 1.160000000000000E8    -4.180465340614319E-1  -5.673986673355103E-1  
 1.165000000000000E8    -5.311151742935181E-1  -4.545775949954987E-1  
 1.170000000000000E8    -6.115130186080933E-1  -3.210116922855377E-1  
 1.175000000000000E8    -6.598898172378540E-1  -1.752806454896927E-1  
 1.180000000000000E8    -6.763195991516113E-1  -2.148473635315895E-2  
 1.185000000000000E8    -6.559635400772095E-1   1.300444155931473E-1  
 1.190000000000000E8    -6.051188111305237E-1   2.743324637413025E-1  
 1.195000000000000E8    -5.261211991310120E-1   3.971588015556335E-1  
 1.200000000000000E8    -4.201166927814484E-1   5.020345449447632E-1  
 1.205000000000000E8    -2.967753410339356E-1   5.806235671043396E-1  
 1.210000000000000E8    -1.596960723400116E-1   6.316484808921814E-1  
 1.215000000000000E8    -1.352682616561651E-2   6.485105156898499E-1  
 1.220000000000000E8     1.305733025074005E-1   6.352894306182861E-1  
 1.225000000000000E8     2.665688693523407E-1   5.929688811302185E-1  
 1.230000000000000E8     3.940254449844360E-1   5.204922556877136E-1  
 1.235000000000000E8     5.014147758483887E-1   4.221022129058838E-1  
 1.240000000000000E8     5.870372653007507E-1   3.035961389541626E-1  
 1.245000000000000E8     6.430420875549316E-1   1.663253307342529E-1  
 1.250000000000000E8     6.671849489212036E-1   1.907667517662048E-2  
 1.255000000000000E8     6.567016839981079E-1  -1.299234181642532E-1  
 1.260000000000000E8     6.111104488372803E-1  -2.765492796897888E-1  
 1.265000000000000E8     5.352393388748169E-1  -4.102233648300171E-1  
 1.270000000000000E8     4.297643601894379E-1  -5.190649032592773E-1  
 1.275000000000000E8     2.998926937580109E-1  -6.016598343849182E-1  
 1.280000000000000E8     1.534836292266846E-1  -6.544230580329895E-1  
 1.285000000000000E8    -2.563823247328401E-3  -6.687715649604797E-1  
 1.290000000000000E8    -1.604824364185333E-1  -6.453390717506409E-1  
 1.295000000000000E8    -3.072185516357422E-1  -5.827935934066773E-1  
 1.300000000000000E8    -4.398228824138641E-1  -4.853292107582092E-1  
 1.305000000000000E8    -5.365740060806274E-1  -3.566801846027374E-1  
 1.310000000000000E8    -6.007095575332642E-1  -2.047951072454453E-1  
 1.315000000000000E8    -6.219301223754883E-1  -3.993312269449234E-2  
 1.320000000000000E8    -5.961172580718994E-1   1.234164834022522E-1  
 1.325000000000000E8    -5.290027260780335E-1   2.707199752330780E-1  
 1.330000000000000E8    -4.220748543739319E-1   3.943936526775360E-1  
 1.335000000000000E8    -2.900690734386444E-1   4.809869527816773E-1  
 1.340000000000000E8    -1.348563879728317E-1   5.287216305732727E-1  
 1.345000000000000E8     2.320701815187931E-2   5.291513800621033E-1  
 1.350000000000000E8     1.721363216638565E-1   4.799041152000427E-1  
 1.355000000000000E8     2.996671199798584E-1   3.858014941215515E-1  
 1.360000000000000E8     3.834256827831268E-1   2.553969919681549E-1  
 1.365000000000000E8     4.106844365596771E-1   1.099671646952629E-1  
 1.370000000000000E8     3.810995817184448E-1  -2.287247218191624E-2  
 1.375000000000000E8     3.080986440181732E-1  -1.225965619087219E-1  
 1.380000000000000E8     2.139012664556503E-1  -1.699354946613312E-1  
 1.385000000000000E8     1.328114569187164E-1  -1.665436923503876E-1  
 1.390000000000000E8     8.701519668102264E-2  -1.376494318246841E-1  
 1.395000000000000E8     7.580032944679260E-2  -1.124029457569122E-1  
 1.400000000000000E8     8.194930851459503E-2  -1.081821843981743E-1  
 1.405000000000000E8     8.284142613410950E-2  -1.279331594705582E-1  
 1.410000000000000E8     6.283981353044510E-2  -1.583258062601090E-1  
 1.415000000000000E8     1.709563657641411E-2  -1.788381040096283E-1  
 1.420000000000000E8    -4.365965351462364E-2  -1.685587018728256E-1  
 1.425000000000000E8    -9.078821539878845E-2  -1.209006384015083E-1  
 1.430000000000000E8    -9.881757944822311E-2  -5.658087879419327E-2  
 1.435000000000000E8    -6.430666893720627E-2  -4.329115618020296E-3  
 1.440000000000000E8    -3.334297100082040E-3   5.419704597443342E-3  
 1.445000000000000E8     4.311880469322205E-2  -4.574732482433319E-2  
 1.450000000000000E8     1.124532334506512E-2  -1.368833333253861E-1  
 1.455000000000000E8    -1.470100134611130E-1  -1.582594513893127E-1  
 1.460000000000000E8    -2.913091182708740E-1   4.254757985472679E-2  
 1.465000000000000E8    -1.537359505891800E-1   3.636218309402466E-1  
 1.470000000000000E8     2.761675715446472E-1   4.310098886489868E-1  
 1.475000000000000E8     5.963851809501648E-1   1.045318841934204E-1  
 1.480000000000000E8     5.854691863059998E-1  -3.175511360168457E-1  
 1.485000000000000E8     3.482711017131805E-1  -6.048280000686646E-1  
 1.490000000000000E8     4.368632659316063E-2  -7.170084714889526E-1  
 1.495000000000000E8    -2.480321526527405E-1  -6.842611432075501E-1  
 1.500000000000000E8    -4.780532121658325E-1  -5.551820397377014E-1  
 1.505000000000000E8    -6.360698938369751E-1  -3.667115569114685E-1  
 1.510000000000000E8    -7.188253402709961E-1  -1.479001343250275E-1  
 1.515000000000000E8    -7.293302416801453E-1   7.537025213241577E-2  
 1.520000000000000E8    -6.723750829696655E-1   2.815034687519074E-1  
 1.525000000000000E8    -5.652348399162293E-1   4.580549001693726E-1  
 1.530000000000000E8    -4.157419204711914E-1   5.916580557823181E-1  
 1.535000000000000E8    -2.410911619663239E-1   6.792252063751221E-1  
 1.540000000000000E8    -4.977603629231453E-2   7.164322137832642E-1  
 1.545000000000000E8     1.400102972984314E-1   7.029430866241455E-1  
 1.550000000000000E8     3.174998164176941E-1   6.425656676292419E-1  
 1.555000000000000E8     4.713242650032044E-1   5.396484732627869E-1  
 1.560000000000000E8     5.948514938354492E-1   4.018562436103821E-1  
 1.565000000000000E8     6.782374382019043E-1   2.410181462764740E-1  
 1.570000000000000E8     7.187971472740173E-1   6.531229615211487E-2  
 1.575000000000000E8     7.144848108291626E-1  -1.137226745486260E-1  
 1.580000000000000E8     6.664186120033264E-1  -2.848166525363922E-1  
 1.585000000000000E8     5.798446536064148E-1  -4.385957121849060E-1  
 1.590000000000000E8     4.613082408905029E-1  -5.653429031372070E-1  
 1.595000000000000E8     3.155132830142975E-1  -6.597184538841248E-1  
 1.600000000000000E8     1.555016785860062E-1  -7.154481410980225E-1  
 1.605000000000000E8    -1.309489924460650E-2  -7.334172129631043E-1  
 1.610000000000000E8    -1.809826195240021E-1  -7.119898796081543E-1  
 1.615000000000000E8    -3.368185460567474E-1  -6.508373022079468E-1  
 1.620000000000000E8    -4.751529991626740E-1  -5.593280196189880E-1  
 1.625000000000000E8    -5.872499346733093E-1  -4.396367073059082E-1  
 1.630000000000000E8    -6.675382852554321E-1  -2.946922481060028E-1  
 1.635000000000000E8    -7.157779335975647E-1  -1.411248892545700E-1  
 1.640000000000000E8    -7.272250652313232E-1   2.106516994535923E-2  
 1.645000000000000E8    -7.037355899810791E-1   1.808777898550034E-1  
 1.650000000000000E8    -6.429162621498108E-1   3.307152092456818E-1  
 1.655000000000000E8    -5.530360937118530E-1   4.647613763809204E-1  
 1.660000000000000E8    -4.333705306053162E-1   5.730670094490051E-1  
 1.665000000000000E8    -2.957279384136200E-1   6.540244221687317E-1  
 1.670000000000000E8    -1.423979997634888E-1   7.012138366699219E-1  
 1.675000000000000E8     1.766596175730228E-2   7.129775285720825E-1  
 1.680000000000000E8     1.778959780931473E-1   6.897560954093933E-1  
 1.685000000000000E8     3.280226290225983E-1   6.315926313400269E-1  
 1.690000000000000E8     4.620106220245361E-1   5.423809885978699E-1  
 1.695000000000000E8     5.710670948028565E-1   4.220615327358246E-1  
 1.700000000000000E8     6.531203389167786E-1   2.826714217662811E-1  
 1.705000000000000E8     7.010159492492676E-1   1.260746270418167E-1  
 1.710000000000000E8     7.129381895065308E-1  -3.556913137435913E-2  
 1.715000000000000E8     6.873655915260315E-1  -1.960106194019318E-1  
 1.720000000000000E8     6.267485022544861E-1  -3.484011888504028E-1  
 1.725000000000000E8     5.344411730766296E-1  -4.809749424457550E-1  
 1.730000000000000E8     4.150709211826325E-1  -5.899144411087036E-1  
 1.735000000000000E8     2.740652859210968E-1  -6.667690873146057E-1  
 1.740000000000000E8     1.191399395465851E-1  -7.129969000816345E-1  
 1.745000000000000E8    -3.902223706245422E-2  -7.230009436607361E-1  
 1.750000000000000E8    -1.952775567770004E-1  -6.978299617767334E-1  
 1.755000000000000E8    -3.416385948657990E-1  -6.393128037452698E-1  
 1.760000000000000E8    -4.688283503055573E-1  -5.534989833831787E-1  
 1.765000000000000E8    -5.759775638580322E-1  -4.397203028202057E-1  
 1.770000000000000E8    -6.548988223075867E-1  -3.096710145473480E-1  
 1.775000000000000E8    -7.057395577430725E-1  -1.651566475629807E-1  
 1.780000000000000E8    -7.237264513969421E-1  -1.360627450048924E-2  
 1.785000000000000E8    -7.092289924621582E-1   1.357067376375198E-1  
 1.790000000000000E8    -6.669834852218628E-1   2.788704633712769E-1  
 1.795000000000000E8    -5.922706127166748E-1   4.097490608692169E-1  
 1.800000000000000E8    -4.967364072799683E-1   5.228931903839111E-1  
 1.805000000000000E8    -3.772589862346649E-1   6.110677123069763E-1  
 1.810000000000000E8    -2.424981743097305E-1   6.760464310646057E-1  
 1.815000000000000E8    -9.717654436826706E-2   7.100946903228760E-1  
 1.820000000000000E8     5.292896181344986E-2   7.135875225067139E-1  
 1.825000000000000E8     2.009869068861008E-1   6.862916350364685E-1  
 1.830000000000000E8     3.393960595130920E-1   6.289781928062439E-1  
 1.835000000000000E8     4.646886885166168E-1   5.414923429489136E-1  
 1.840000000000000E8     5.683640241622925E-1   4.296479821205139E-1  
 1.845000000000000E8     6.481540799140930E-1   2.979325950145721E-1  
 1.850000000000000E8     6.965363025665283E-1   1.503643840551376E-1  
 1.855000000000000E8     7.121558785438538E-1  -3.015009919181466E-3  
 1.860000000000000E8     6.927452087402344E-1  -1.568787842988968E-1  
 1.865000000000000E8     6.417632699012756E-1  -3.049454689025879E-1  
 1.870000000000000E8     5.591059327125549E-1  -4.376483857631683E-1  
 1.875000000000000E8     4.489596486091614E-1  -5.497792959213257E-1  
 1.880000000000000E8     3.171567916870117E-1  -6.344136595726013E-1  
 1.885000000000000E8     1.699002087116242E-1  -6.874090433120728E-1  
 1.890000000000000E8     1.478635240346193E-2  -7.073234915733337E-1  
 1.895000000000000E8    -1.393639892339706E-1  -6.918932795524597E-1  
 1.900000000000000E8    -2.866943776607513E-1  -6.442030668258667E-1  
 1.905000000000000E8    -4.194969534873962E-1  -5.677877068519592E-1  
 1.910000000000000E8    -5.319971442222595E-1  -4.621483981609345E-1  
 1.915000000000000E8    -6.183879375457764E-1  -3.377139270305634E-1  
 1.920000000000000E8    -6.764726042747498E-1  -1.999311745166779E-1  
 1.925000000000000E8    -7.021607160568237E-1  -4.908664152026177E-2  
 1.930000000000000E8    -6.973838806152344E-1   1.017410308122635E-1  
 1.935000000000000E8    -6.599941849708557E-1   2.473900467157364E-1  
 1.940000000000000E8    -5.925935506820679E-1   3.810238838195801E-1  
 1.945000000000000E8    -4.970403015613556E-1   4.953705072402954E-1  
 1.950000000000000E8    -3.806037008762360E-1   5.899063348770142E-1  
 1.955000000000000E8    -2.484114468097687E-1   6.578768491744995E-1  
 1.960000000000000E8    -1.020052805542946E-1   6.946275234222412E-1  
 1.965000000000000E8     4.525458440184593E-2   6.996842026710510E-1  
 1.970000000000000E8     1.947181075811386E-1   6.732312440872192E-1  
 1.975000000000000E8     3.313147425651550E-1   6.166114211082459E-1  
 1.980000000000000E8     4.558090865612030E-1   5.311248898506165E-1  
 1.985000000000000E8     5.569795370101929E-1   4.200980365276337E-1  
 1.990000000000000E8     6.345034241676331E-1   2.889142036437988E-1  
 1.995000000000000E8     6.807556152343750E-1   1.457016319036484E-1  
 2.000000000000000E8     6.956745386123657E-1  -6.997116841375828E-3  
