#  HZ   S   RI   R     50.00 
! Rohde & Schwarz ZVA40 2Ports - Version 3.12 - 1145.1110k40 SN: 100360
! Date: 2019-09-05 18:59:52
! Measurement: S11 
! 
 3.350000000000000E8    -2.139909267425537E-1  -1.360172480344772E-1  
 3.360000000000000E8    -2.117087543010712E-1  -1.139874532818794E-1  
 3.370000000000000E8    -2.086020410060883E-1  -9.640651196241379E-2  
 3.380000000000000E8    -2.064354270696640E-1  -8.124770969152451E-2  
 3.390000000000000E8    -2.059191763401032E-1  -6.858198344707489E-2  
 3.400000000000000E8    -2.045571506023407E-1  -5.628978088498116E-2  
 3.410000000000000E8    -2.048087418079376E-1  -4.450994357466698E-2  
 3.420000000000000E8    -2.069624215364456E-1  -3.154394030570984E-2  
 3.430000000000000E8    -2.090966403484345E-1  -1.752897724509239E-2  
 3.440000000000000E8    -2.117764949798584E-1  -2.849883167073131E-3  
 3.450000000000000E8    -2.127682864665985E-1   1.307372935116291E-2  
 3.460000000000000E8    -2.127765715122223E-1   3.022056445479393E-2  
 3.470000000000000E8    -2.114045470952988E-1   4.970712587237358E-2  
 3.480000000000000E8    -2.067446261644363E-1   6.998113542795181E-2  
 3.490000000000000E8    -1.998961418867111E-1   8.916693180799484E-2  
 3.500000000000000E8    -1.907962709665299E-1   1.065871417522430E-1  
 3.510000000000000E8    -1.800203621387482E-1   1.227518245577812E-1  
 3.520000000000000E8    -1.678182929754257E-1   1.373891532421112E-1  
 3.530000000000000E8    -1.543175876140595E-1   1.496835052967072E-1  
 3.540000000000000E8    -1.428554803133011E-1   1.606599241495132E-1  
 3.550000000000000E8    -1.311143487691879E-1   1.723583340644836E-1  
 3.560000000000000E8    -1.180188059806824E-1   1.835377514362335E-1  
 3.570000000000000E8    -1.039834991097450E-1   1.944402605295181E-1  
 3.580000000000000E8    -8.801575750112534E-2   2.040867954492569E-1  
 3.590000000000000E8    -7.076129317283630E-2   2.126040756702423E-1  
 3.600000000000000E8    -5.278037115931511E-2   2.189348489046097E-1  
 3.610000000000000E8    -3.475654125213623E-2   2.238971889019013E-1  
 3.620000000000000E8    -1.611043326556683E-2   2.263265848159790E-1  
 3.630000000000000E8     2.624434418976307E-3   2.269127815961838E-1  
 3.640000000000000E8     2.188857458531857E-2   2.243978679180145E-1  
 3.650000000000000E8     3.854415565729141E-2   2.200663387775421E-1  
 3.660000000000000E8     5.357729271054268E-2   2.144797444343567E-1  
 3.670000000000000E8     6.651341170072556E-2   2.078977376222611E-1  
 3.680000000000000E8     7.765395939350128E-2   2.014130502939224E-1  
 3.690000000000000E8     8.761406689882278E-2   1.955035626888275E-1  
 3.700000000000000E8     9.765114635229111E-2   1.903125196695328E-1  
 3.710000000000000E8     1.074841618537903E-1   1.855574846267700E-1  
 3.720000000000000E8     1.170605942606926E-1   1.799740642309189E-1  
 3.730000000000000E8     1.253529489040375E-1   1.746112108230591E-1  
 3.740000000000000E8     1.342025548219681E-1   1.690446883440018E-1  
 3.750000000000000E8     1.422769427299500E-1   1.634985506534576E-1  
 3.760000000000000E8     1.508050411939621E-1   1.585357040166855E-1  
 3.770000000000000E8     1.587941944599152E-1   1.528027057647705E-1  
 3.780000000000000E8     1.667531281709671E-1   1.479767560958862E-1  
 3.790000000000000E8     1.756695359945297E-1   1.429747492074966E-1  
 3.800000000000000E8     1.860810220241547E-1   1.383557468652725E-1  
 3.810000000000000E8     1.974639892578125E-1   1.312534362077713E-1  
 3.820000000000000E8     2.086777538061142E-1   1.222632676362991E-1  
 3.830000000000000E8     2.189064472913742E-1   1.099373549222946E-1  
 3.840000000000000E8     2.264637649059296E-1   9.655521810054779E-2  
 3.850000000000000E8     2.314061373472214E-1   8.257587254047394E-2  
 3.860000000000000E8     2.331689149141312E-1   6.987127661705017E-2  
 3.870000000000000E8     2.329305410385132E-1   5.917191132903099E-2  
 3.880000000000000E8     2.328313440084457E-1   5.058928579092026E-2  
 3.890000000000000E8     2.325214147567749E-1   4.343644157052040E-2  
 3.900000000000000E8     2.337551414966583E-1   3.695197030901909E-2  
 3.910000000000000E8     2.357430607080460E-1   3.138265013694763E-2  
 3.920000000000000E8     2.380430251359940E-1   2.786582149565220E-2  
 3.930000000000000E8     2.408826053142548E-1   2.309648878872395E-2  
 3.940000000000000E8     2.449786365032196E-1   1.989841647446156E-2  
 3.950000000000000E8     2.503747642040253E-1   1.650505512952805E-2  
 3.960000000000000E8     2.586888372898102E-1   1.297456119209528E-2  
 3.970000000000000E8     2.678803205490112E-1   8.417594246566296E-3  
 3.980000000000000E8     2.790977060794830E-1   1.966530457139015E-3  
 3.990000000000000E8     2.917220592498779E-1  -6.550202146172524E-3  
 4.000000000000000E8     3.050962090492249E-1  -1.835044659674168E-2  
 4.010000000000000E8     3.190523087978363E-1  -3.347554430365562E-2  
 4.020000000000000E8     3.313935399055481E-1  -5.119001865386963E-2  
 4.030000000000000E8     3.417629599571228E-1  -7.129056006669998E-2  
 4.040000000000000E8     3.508013784885407E-1  -9.358612447977066E-2  
 4.050000000000000E8     3.580577969551086E-1  -1.179852932691574E-1  
 4.060000000000000E8     3.625385165214539E-1  -1.441935449838638E-1  
 4.070000000000000E8     3.644008636474609E-1  -1.709696352481842E-1  
 4.080000000000000E8     3.638140261173248E-1  -1.985300779342651E-1  
 4.090000000000000E8     3.617104887962341E-1  -2.273032516241074E-1  
 4.100000000000000E8     3.561275601387024E-1  -2.569146752357483E-1  
 4.110000000000000E8     3.518398106098175E-1  -2.810487747192383E-1  
 4.120000000000000E8     3.412408828735352E-1  -3.104866445064545E-1  
 4.130000000000000E8     3.276829719543457E-1  -3.404047787189484E-1  
 4.140000000000000E8     3.107878565788269E-1  -3.697157800197601E-1  
 4.150000000000000E8     2.910449504852295E-1  -3.979740142822266E-1  
 4.160000000000000E8     2.667817473411560E-1  -4.254162311553955E-1  
 4.170000000000000E8     2.391198128461838E-1  -4.492081999778748E-1  
 4.180000000000000E8     2.093715816736221E-1  -4.704092144966126E-1  
 4.190000000000000E8     1.787123233079910E-1  -4.882605373859406E-1  
 4.200000000000000E8     1.458388566970825E-1  -5.027034878730774E-1  
 4.210000000000000E8     1.128949373960495E-1  -5.140742063522339E-1  
 4.220000000000000E8     8.023610711097717E-2  -5.221384763717651E-1  
 4.230000000000000E8     4.756544157862663E-2  -5.280007123947144E-1  
 4.240000000000000E8     1.393732801079750E-2  -5.315001010894775E-1  
 4.250000000000000E8    -1.859758980572224E-2  -5.328297019004822E-1  
 4.260000000000000E8    -5.125759541988373E-2  -5.321536064147949E-1  
 4.270000000000000E8    -8.315194398164749E-2  -5.290327668190002E-1  
 4.280000000000000E8    -1.136657148599625E-1  -5.244136452674866E-1  
 4.290000000000000E8    -1.450946927070618E-1  -5.179727077484131E-1  
 4.300000000000000E8    -1.760728359222412E-1  -5.091450214385986E-1  
 4.310000000000000E8    -2.066135853528976E-1  -4.974083006381989E-1  
 4.320000000000000E8    -2.347645610570908E-1  -4.840932488441467E-1  
 4.330000000000000E8    -2.626318335533142E-1  -4.678947627544403E-1  
 4.340000000000000E8    -2.873891592025757E-1  -4.508465826511383E-1  
 4.350000000000000E8    -3.106459677219391E-1  -4.311787784099579E-1  
 4.360000000000000E8    -3.307044208049774E-1  -4.116447269916534E-1  
 4.370000000000000E8    -3.491997122764587E-1  -3.918159008026123E-1  
 4.380000000000000E8    -3.660368025302887E-1  -3.714261353015900E-1  
 4.390000000000000E8    -3.810994923114777E-1  -3.522232472896576E-1  
 4.400000000000000E8    -3.961610496044159E-1  -3.338700830936432E-1  
 4.410000000000000E8    -4.146869480609894E-1  -3.095350861549377E-1  
 4.420000000000000E8    -4.296479821205139E-1  -2.915970385074616E-1  
 4.430000000000000E8    -4.451108574867249E-1  -2.719044983386993E-1  
 4.440000000000000E8    -4.590054154396057E-1  -2.498918324708939E-1  
 4.450000000000000E8    -4.723517894744873E-1  -2.273435145616531E-1  
 4.460000000000000E8    -4.847107529640198E-1  -2.042259424924851E-1  
 4.470000000000000E8    -4.949073791503906E-1  -1.806319206953049E-1  
 4.480000000000000E8    -5.052205920219421E-1  -1.557936221361160E-1  
 4.490000000000000E8    -5.127273201942444E-1  -1.304209828376770E-1  
 4.500000000000000E8    -5.197412371635437E-1  -1.052658483386040E-1  
 4.510000000000000E8    -5.262937545776367E-1  -7.954322546720505E-2  
 4.520000000000000E8    -5.305916666984558E-1  -5.243474990129471E-2  
 4.530000000000000E8    -5.337018966674805E-1  -2.442657947540283E-2  
 4.540000000000000E8    -5.343420505523682E-1   3.583499928936362E-3  
 4.550000000000000E8    -5.335980057716370E-1   3.194751963019371E-2  
 4.560000000000000E8    -5.302755236625671E-1   5.936078727245331E-2  
 4.570000000000000E8    -5.261741876602173E-1   8.641309291124344E-2  
 4.580000000000000E8    -5.200514197349548E-1   1.124032288789749E-1  
 4.590000000000000E8    -5.129812359809876E-1   1.381080001592636E-1  
 4.600000000000000E8    -5.052900910377502E-1   1.634895950555801E-1  
 4.610000000000000E8    -4.962235987186432E-1   1.883620619773865E-1  
 4.620000000000000E8    -4.859094321727753E-1   2.130751013755798E-1  
 4.630000000000000E8    -4.741458594799042E-1   2.372347116470337E-1  
 4.640000000000000E8    -4.621695280075073E-1   2.599476277828217E-1  
 4.650000000000000E8    -4.485367238521576E-1   2.833659052848816E-1  
 4.660000000000000E8    -4.332741796970367E-1   3.067623078823090E-1  
 4.670000000000000E8    -4.164210557937622E-1   3.288628756999970E-1  
 4.680000000000000E8    -3.984297811985016E-1   3.503620922565460E-1  
 4.690000000000000E8    -3.768251240253449E-1   3.692565858364105E-1  
 4.700000000000000E8    -3.550239205360413E-1   3.866286873817444E-1  
 4.710000000000000E8    -3.326885700225830E-1   4.023048579692841E-1  
 4.720000000000000E8    -3.094021081924439E-1   4.151810407638550E-1  
 4.730000000000000E8    -2.873390018939972E-1   4.256114959716797E-1  
 4.740000000000000E8    -2.648953795433044E-1   4.357354640960693E-1  
 4.750000000000000E8    -2.428041845560074E-1   4.439971745014191E-1  
 4.760000000000000E8    -2.207404524087906E-1   4.515449404716492E-1  
 4.770000000000000E8    -2.002650201320648E-1   4.578970968723297E-1  
 4.780000000000000E8    -1.795168071985245E-1   4.635491371154785E-1  
 4.790000000000000E8    -1.587646156549454E-1   4.698160290718079E-1  
 4.800000000000000E8    -1.383262574672699E-1   4.745769500732422E-1  
 4.810000000000000E8    -1.165209412574768E-1   4.792361557483673E-1  
 4.820000000000000E8    -9.550312906503677E-2   4.827998876571655E-1  
 4.830000000000000E8    -7.073935121297836E-2   4.884199202060700E-1  
 4.840000000000000E8    -4.960575699806213E-2   4.897816777229309E-1  
 4.850000000000000E8    -2.926496975123882E-2   4.899062514305115E-1  
 4.860000000000000E8    -8.915686048567295E-3   4.895214140415192E-1  
 4.870000000000000E8     1.108683925122023E-2   4.892179369926453E-1  
 4.880000000000000E8     3.177722543478012E-2   4.889841675758362E-1  
 4.890000000000000E8     5.230760201811791E-2   4.874494969844818E-1  
 4.900000000000000E8     7.286656647920609E-2   4.854680895805359E-1  
 4.910000000000000E8     9.318667650222778E-2   4.818206131458283E-1  
 4.920000000000000E8     1.137444525957108E-1   4.785470664501190E-1  
 4.930000000000000E8     1.343915164470673E-1   4.751445353031158E-1  
 4.940000000000000E8     1.554402858018875E-1   4.704130291938782E-1  
 4.950000000000000E8     1.765884906053543E-1   4.649138152599335E-1  
 4.960000000000000E8     1.986536532640457E-1   4.587161839008331E-1  
 4.970000000000000E8     2.207437157630920E-1   4.514827430248261E-1  
 4.980000000000000E8     2.432793080806732E-1   4.421697854995728E-1  
 4.990000000000000E8     2.661988139152527E-1   4.312792420387268E-1  
 5.000000000000000E8     2.883783578872681E-1   4.183420836925507E-1  
 5.010000000000000E8     3.176809251308441E-1   4.037595391273499E-1  
 5.020000000000000E8     3.366655707359314E-1   3.866110742092133E-1  
 5.030000000000000E8     3.553088009357452E-1   3.695324957370758E-1  
 5.040000000000000E8     3.719642460346222E-1   3.509978353977203E-1  
 5.050000000000000E8     3.878856301307678E-1   3.319092690944672E-1  
 5.060000000000000E8     4.020279943943024E-1   3.112867474555969E-1  
 5.070000000000000E8     4.162166416645050E-1   2.915142774581909E-1  
 5.080000000000000E8     4.282118976116180E-1   2.711369097232819E-1  
 5.090000000000000E8     4.399310648441315E-1   2.498348355293274E-1  
 5.100000000000000E8     4.517437517642975E-1   2.268456220626831E-1  
 5.110000000000000E8     4.602569937705994E-1   2.040935158729553E-1  
 5.120000000000000E8     4.689990878105164E-1   1.802095621824265E-1  
 5.130000000000000E8     4.752085208892822E-1   1.553835272789002E-1  
 5.140000000000000E8     4.799589216709137E-1   1.307948082685471E-1  
 5.150000000000000E8     4.819934964179993E-1   1.061098054051399E-1  
 5.160000000000000E8     4.819912016391754E-1   8.153351396322250E-2  
 5.170000000000000E8     4.816985130310059E-1   5.889951065182686E-2  
 5.180000000000000E8     4.800779521465302E-1   3.658314794301987E-2  
 5.190000000000000E8     4.779563248157501E-1   1.449796464294195E-2  
 5.200000000000000E8     4.748136103153229E-1  -7.067723665386438E-3  
 5.210000000000000E8     4.698886871337891E-1  -2.833369188010693E-2  
 5.220000000000000E8     4.645248651504517E-1  -4.808491095900536E-2  
 5.230000000000000E8     4.577800631523132E-1  -6.693996489048004E-2  
 5.240000000000000E8     4.511232972145081E-1  -8.568821102380753E-2  
 5.250000000000000E8     4.436043500900269E-1  -1.030752956867218E-1  
 5.260000000000000E8     4.354499876499176E-1  -1.198305487632752E-1  
 5.270000000000000E8     4.272732138633728E-1  -1.348094046115875E-1  
 5.280000000000000E8     4.193555116653442E-1  -1.498031020164490E-1  
 5.290000000000000E8     4.113914072513580E-1  -1.643333584070206E-1  
 5.300000000000000E8     4.033793807029724E-1  -1.781877428293228E-1  
 5.310000000000000E8     3.953998386859894E-1  -1.925018429756165E-1  
 5.320000000000000E8     3.871756792068481E-1  -2.067604959011078E-1  
 5.330000000000000E8     3.786910176277161E-1  -2.210565656423569E-1  
 5.340000000000000E8     3.689038455486298E-1  -2.346163243055344E-1  
 5.350000000000000E8     3.596472740173340E-1  -2.477188408374786E-1  
